"FID","RID","SID","03E2"
"FID=SEL-421-R117-V0-Z007007-D20060413","UPD1X LINHA COLINAS","SE RIBEIRO GONÇALVES","14ba"
"MONTH","DAY","YEAR","HOUR","MIN","SEC","MSEC","0ACA"
3,28,2019,8,41,47,689,"044C"
"EVENT_NUM","EVENT","LOCATION","FREQ","NFREQ","SAM/CYC_A","SAM/CYC_D","NUM_OF_CYC","SER_NUM","PRIM_VAL","CTR_IA","CTR_IB","CTR_IC","CTR_IG","PTR_VA","PTR_VB","PTR_VC","PTR_VS1","PTR_VS2","CTRW","CTRX","PTRY","PTRZ","GROUP","BREAKER1","HOUR_T1","MIN_T1","SEC_T1","MSEC_T1","HOUR_C1","MIN_C1","SEC_C1","MSEC_C1","BREAKER2","HOUR_T2","MIN_T2","SEC_T2","MSEC_T2","HOUR_C2","MIN_C2","SEC_C2","MSEC_C2","T_LED","TARGETS","MB_TRIGGER","MB_TRIP","IA_PF","IA_DEG_PF","IB_PF","IB_DEG_PF","IC_PF","IC_DEG_PF","IG_PF","IG_DEG_PF","3I2_PF","3I2_DEG_PF","I1_PF","I1_DEG_PF","VA_PF","VA_DEG_PF","VB_PF","VB_DEG_PF","VC_PF","VC_DEG_PF","VS1_PF","VS1_DEG_PF","VS2_PF","VS2_DEG_PF","V1MEM_PF","V1MEM_DEG_PF","V0_PF","V0_DEG_PF","V2_PF","V2_DEG_PF","V1_PF","V1_DEG_PF","IA","IA_DEG","IB","IB_DEG","IC","IC_DEG","IG","IG_DEG","3I2","3I2_DEG","I1","I1_DEG","VA","VA_DEG","VB","VB_DEG","VC","VC_DEG","VS1","VS1_DEG","VS2","VS2_DEG","V1MEM","V1MEM_DEG","V0","V0_DEG","V2","V2_DEG","V1","V1_DEG","EFCC"
11673,"CAG T",256.39,59.95,60,8,8,90.000,"2005290165","YES",1.0,1.0,1.0,1.0,1.0,1.0,1.0,1.0,1.0,2200,2200,4500,4500,3,"OPEN",8,41,47,693, , , , ,"OPEN",8,41,47,693, , , , ,43044,"COMM ZONE_2 A_PHASE C_PHASE 50","0042000010","035E000010",393,152.80,400,33.58,404,-87.84,1196,98.54,18,-14.50,399,152.85,301,0.00,302,-120.66,299,119.84,310,-117.44,310,-117.45,301,-0.27,1,171.88,2,54.76,301,-0.27,2189,-117.94,419,30.87,2257,42.06,4865,-45.01,4061,-152.36,1348,-103.16,219,8.44,317,-122.44,188,120.49,326,-118.57,326,-118.57,274,8.20,29,-123.27,53,98.43,241,1.61,"6DCF"
"IA(A)","IB(A)","IC(A)","IG(A)","VA(kV)","VB(kV)","VC(kV)","VS1(kV)","VS2(kV)","V1MEM(kV)","FREQ","TRIG","LOPHC SPOA SPOB SPOC SPO 3PO 27APO 27BPO SOTFE ILOP LOP ZLOAD ZLIN ZLOUT FIDEN FSA FSB FSC DFAULT ER EAFSRC * * * M1P M2P M3P M4P M5P * * * 50Q1 50Q2 50Q3 50Q4 67Q1 67Q2 67Q3 67Q4 51S1 51S1T 51S1R * 51S2 51S2T 51S2R * 51S3 51S3T 51S3R * * * * * Z1G Z2G Z3G Z4G Z5G * * * 67G1 67G2 67G3 67G4 67G1T 67G2T 67G3T 67G4T RMB8A RMB7A RMB6A RMB5A RMB4A RMB3A RMB2A RMB1A TMB8A TMB7A TMB6A TMB5A TMB4A TMB3A TMB2A TMB1A RMB8B RMB7B RMB6B RMB5B RMB4B RMB3B RMB2B RMB1B TMB8B TMB7B TMB6B TMB5B TMB4B TMB3B TMB2B TMB1B ROKA RBADA CBADA LBOKA ANOKA DOKA * * ROKB RBADB CBADB LBOKB ANOKB DOKB * * TPA TPB TPC TRIP 3PT SPT TPA1 TPB1 TPC1 TPA2 TPB2 TPC2 TOP ULTR ULMTR1 ULMTR2 52ACL1 52BCL1 52CCL1 52AAL1 52BAL1 52CAL1 52AA1 52AB1 52AC1 * 52ACL2 52BCL2 52CCL2 52AAL2 52BAL2 52CAL2 BK2LO BK1CL BK2CL LEADBK0 LEADBK1 LEADBK2 FOLBK0 FOLBK1 TLED_1 TLED_2 TLED_3 TLED_4 TLED_5 TLED_6 TLED_7 TLED_8 TLED_9 TLED_10 TLED_11 TLED_12 TLED_13 TLED_14 TLED_15 TLED_16 M1PT M2PT M3PT M4PT M5PT * * * Z1GT Z2GT Z3GT Z4GT Z5GT * * * XAG5 XBG5 XCG5 CVTBLH CVTBL VPOLV * * OSB2 OSB3 OSB4 OSB5 OSB OSTI OSTO OST F32P R32P F32Q R32Q 32QF 32QR 32SPOF 32SPOR F32I R32I F32V R32V F32QG R32QG 32GF 32GR RXPRM COMPRM TRPRM DTR SOTFT E3PT E3PT1 E3PT2 50P1 50P2 50P3 50P4 67P1 67P2 67P3 67P4 67Q1T 67Q2T 67Q3T 67Q4T * * * * PT Z3RB KEY EKEY ECTT 27AWI 27BWI 27CWI 59VP 59VS1 25ENBK1 SFZBK1 SFBK1 25W1BK1 25W2BK1 25A1BK1 59VS2 25ENBK2 SFZBK2 SFBK2 25W1BK2 25W2BK2 25A1BK2 25A2BK2 FOC1 FOBF1 BFTRIP1 BFTR1 BFULTR1 * * * RTSA1 RTSB1 RTSC1 RT1 FBFA1 FBFB1 FBFC1 FBF1 FOC2 FOBF2 BFTRIP2 BFTR2 BFULTR2 * * * RTSA2 RTSB2 RTSC2 RT2 FBFA2 FBFB2 FBFC2 FBF2 * IN107 IN106 IN105 IN104 IN103 IN102 IN101 OUT108 OUT107 OUT106 OUT105 OUT104 OUT103 OUT102 OUT101 PSV08 PSV07 PSV06 PSV05 PSV04 PSV03 PSV02 PSV01 ASV008 ASV007 ASV006 ASV005 ASV004 ASV003 ASV002 ASV001 MAB5 MBC5 MCA5 * MAG1 MBG1 MCG1 * MAG2 MBG2 MCG2 * MAG3 MBG3 MCG3 * MAG4 MBG4 MCG4 * MAG5 MBG5 MCG5 * XAG1 XBG1 XCG1 * XAG2 XBG2 XCG2 * XAG3 XBG3 XCG3 * XAG4 XBG4 XCG4 * X6ABC X7ABC 50ABC UBOSB OSBA OSBB OSBC OSB1","F58D"
379,-279,-99,0,-294.38,96.28,199.77,82.38,82.40,-294.23,59.95, ,"0018000000200000000040000084000004e3b88a000200000400000007000000f7ef000000003f800000000000000000","20B4"
340,4,-346,-2,-163.81,-133.93,298.82,-153.05,-153.01,-164.71,59.95, ,"0018000000200000000040000084000004e3b88a000200000400000007000000f7ef000000003f800000000000000000","2161"
103,285,-391,-3,62.69,-285.69,222.84,-298.84,-298.80,61.29,59.95, ,"0018000000200000000040000084000004e3b88a000200000400000007000000f7ef000000003f800000000000000000","2135"
-195,399,-207,-3,252.48,-270.11,16.34,-269.59,-269.57,251.40,59.95, ,"0018000000200000000040000084000004e3b88a000200000400000007000000f7ef000000003f800000000000000000","2182"
-379,280,99,-1,294.38,-96.31,-199.74,-82.39,-82.42,294.24,59.95, ,"0018000000200000000040000084000004e3b88a000200000400000007000000f7ef000000003f800000000000000000","2102"
-341,-4,346,1,163.85,133.90,-298.84,153.06,153.00,164.73,59.95, ,"0018000000200000000040000084000004e3b88a000200000400000007000000f7ef000000003f800000000000000000","20B2"
-103,-286,391,3,-62.71,285.72,-222.88,298.88,298.82,-61.28,59.95, ,"0018000000200000000040000084000004e3b88a000200000400000007000000f7ef000000003f800000000000000000","2132"
195,-400,207,2,-252.51,270.14,-16.34,269.61,269.58,-251.39,59.95, ,"0018000000200000000040000084000004e3b88a000200000400000007000000f7ef000000003f800000000000000000","2115"
379,-280,-99,0,-294.37,96.32,199.77,82.40,82.43,-294.25,59.95, ,"0018000000200000000040000084000004e3b88a000200000400000007000000f7ef000000003f800000000000000000","20A4"
341,4,-347,-2,-163.79,-133.94,298.86,-153.10,-153.02,-164.74,59.95, ,"0018000000200000000040000084000004e3b88a000200000400000007000000f7ef000000003f800000000000000000","216F"
103,285,-391,-3,62.73,-285.72,222.86,-298.89,-298.81,61.27,59.95, ,"0018000000200000000040000084000004e3b88a000200000400000007000000f7ef000000003f800000000000000000","2130"
-194,400,-206,-1,252.51,-270.11,16.30,-269.57,-269.54,251.40,59.95, ,"0018000000200000000040000084000004e3b88a000200000400000007000000f7ef000000003f800000000000000000","215E"
-378,279,99,0,294.36,-96.28,-199.80,-82.36,-82.40,294.26,59.95, ,"0018000000200000000040000084000004e3b88a000200000400000007000000f7ef000000003f800000000000000000","20D9"
-340,-4,347,3,163.78,133.94,-298.83,153.07,153.00,164.75,59.95, ,"0018000000200000000040000084000004e3b88a000200000400000007000000f7ef000000003f800000000000000000","20BC"
-103,-285,391,3,-62.69,285.68,-222.83,298.83,298.75,-61.27,59.95, ,"0018000000200000000040000084000004e3b88a000200000400000007000000f7ef000000003f800000000000000000","2134"
194,-399,207,1,-252.47,270.08,-16.31,269.55,269.52,-251.40,59.95, ,"0018000000200000000040000084000004e3b88a000200000400000007000000f7ef000000003f800000000000000000","211E"
378,-280,-99,-1,-294.39,96.31,199.75,82.41,82.44,-294.26,59.95, ,"0018000000200000000040000084000004e3b88a000200000400000007000000f7ef000000003f800000000000000000","20D3"
340,3,-347,-4,-163.84,-133.88,298.81,-153.00,-152.94,-164.75,59.95, ,"0018000000200000000040000084000004e3b88a000200000400000007000000f7ef000000003f800000000000000000","2173"
103,285,-391,-3,62.70,-285.69,222.85,-298.83,-298.79,61.26,59.95, ,"0018000000200000000040000084000004e3b88a000200000400000007000000f7ef000000003f800000000000000000","2132"
-195,400,-207,-2,252.51,-270.13,16.37,-269.61,-269.59,251.39,59.95, ,"0018000000200000000040000084000004e3b88a000200000400000007000000f7ef000000003f800000000000000000","2172"
-378,280,99,0,294.40,-96.34,-199.72,-82.45,-82.46,294.26,59.95, ,"0018000000200000000040000084000004e3b88a000200000400000007000000f7ef000000003f800000000000000000","20D0"
-340,-4,347,3,163.85,133.91,-298.83,153.04,152.99,164.76,59.95, ,"0018000000200000000040000084000004e3b88a000200000400000007000000f7ef000000003f800000000000000000","20C6"
-102,-285,391,4,-62.70,285.71,-222.88,298.86,298.81,-61.25,59.95, ,"0018000000200000000040000084000004e3b88a000200000400000007000000f7ef000000003f800000000000000000","2129"
195,-399,207,3,-252.51,270.15,-16.37,269.61,269.58,-251.39,59.95, ,"0018000000200000000040000084000004e3b88a000200000400000007000000f7ef000000003f800000000000000000","212B"
378,-279,-99,0,-294.40,96.34,199.72,82.42,82.43,-294.27,59.95, ,"0018000000200000000040000084000004e3b88a000200000400000007000000f7ef000000003f800000000000000000","20A6"
340,5,-346,-2,-163.85,-133.90,298.83,-153.05,-153.00,-164.77,59.95, ,"0018000000200000000040000084000004e3b88a000200000400000007000000f7ef000000003f800000000000000000","2169"
103,285,-391,-3,62.68,-285.67,222.86,-298.83,-298.77,61.24,59.95, ,"0018000000200000000040000084000004e3b88a000200000400000007000000f7ef000000003f800000000000000000","2134"
-194,398,-207,-3,252.48,-270.11,16.36,-269.58,-269.56,251.39,59.95, ,"0018000000200000000040000084000004e3b88a000200000400000007000000f7ef000000003f800000000000000000","2188"
-378,279,98,-0,294.38,-96.35,-199.71,-82.42,-82.46,294.27,59.95, ,"0018000000200000000040000084000004e3b88a000200000400000007000000f7ef000000003f800000000000000000","2109"
-340,-3,346,3,163.87,133.83,-298.80,152.98,152.93,164.78,59.95, ,"0018000000200000000040000084000004e3b88a000200000400000007000000f7ef000000003f800000000000000000","20CC"
-104,-284,392,4,-62.63,285.64,-222.87,298.81,298.76,-61.23,59.95, ,"0018000000200000000040000084000004e3b88a000200000400000007000000f7ef000000003f800000000000000000","212B"
194,-399,207,2,-252.46,270.14,-16.38,269.62,269.61,-251.38,59.95, ,"0018000000200000000040000084000004e3b88a000200000400000007000000f7ef000000003f800000000000000000","2127"
378,-280,-99,-1,-294.39,96.37,199.73,82.47,82.50,-294.27,59.95, ,"0018000000200000000040000084000004e3b88a000200000400000007000000f7ef000000003f800000000000000000","20DB"
340,3,-346,-3,-163.86,-133.87,298.83,-153.01,-152.94,-164.79,59.95, ,"0018000000200000000040000084000004e3b88a000200000400000007000000f7ef000000003f800000000000000000","2179"
103,284,-392,-4,62.64,-285.71,222.92,-298.86,-298.82,61.22,59.95, ,"0018000000200000000040000084000004e3b88a000200000400000007000000f7ef000000003f800000000000000000","2126"
-194,399,-207,-2,252.47,-270.13,16.35,-269.61,-269.60,251.37,59.95, ,"0018000000200000000040000084000004e3b88a000200000400000007000000f7ef000000003f800000000000000000","217B"
-378,280,99,1,294.39,-96.31,-199.78,-82.44,-82.46,294.28,59.95, ,"0018000000200000000040000084000004e3b88a000200000400000007000000f7ef000000003f800000000000000000","20DD"
-341,-4,347,2,163.84,133.91,-298.84,153.03,152.97,164.80,59.95, ,"0018000000200000000040000084000004e3b88a000200000400000007000000f7ef000000003f800000000000000000","20BE"
-103,-284,391,4,-62.71,285.70,-222.85,298.86,298.80,-61.22,59.95, ,"0018000000200000000040000084000004e3b88a000200000400000007000000f7ef000000003f800000000000000000","2122"
194,-399,207,2,-252.46,270.07,-16.32,269.56,269.54,-251.37,59.95, ,"0018000000200000000040000084000004e3b88a000200000400000007000000f7ef000000003f800000000000000000","2127"
378,-280,-99,-1,-294.36,96.28,199.76,82.38,82.41,-294.28,59.95, ,"0018000000200000000040000084000004e3b88a000200000400000007000000f7ef000000003f800000000000000000","20DC"
340,3,-347,-4,-163.83,-133.88,298.78,-153.00,-152.95,-164.79,59.95, ,"0018000000200000000040000084000004e3b88a000200000400000007000000f7ef000000003f800000000000000000","217D"
103,285,-392,-4,62.68,-285.58,222.76,-298.75,-298.69,61.22,59.95, ,"0018000000200000000040000084000004e3b88a000200000400000007000000f7ef000000003f800000000000000000","2135"
-194,400,-207,-1,252.46,-270.07,16.33,-269.55,-269.53,251.37,59.95, ,"0018000000200000000040000084000004e3b88a000200000400000007000000f7ef000000003f800000000000000000","216E"
-377,281,99,2,294.35,-96.35,-199.68,-82.44,-82.48,294.26,59.95, ,"0018000000200000000040000084000004e3b88a000200000400000007000000f7ef000000003f800000000000000000","20DD"
-340,-3,347,4,163.84,133.81,-298.73,152.95,152.90,164.79,59.95, ,"0018000000200000000040000084000004e3b88a000200000400000007000000f7ef000000003f800000000000000000","20C6"
-104,-285,392,3,-62.63,285.57,-222.79,298.75,298.70,-61.22,59.95, ,"0018000000200000000040000084000004e3b88a000200000400000007000000f7ef000000003f800000000000000000","212A"
194,-400,207,1,-252.45,270.10,-16.37,269.60,269.57,-251.35,59.95, ,"0018000000200000000040000084000004e3b88a000200000400000007000000f7ef000000003f800000000000000000","210F"
378,-281,-99,-1,-294.37,96.40,199.66,82.50,82.50,-294.25,59.95, ,"0018000000200000000040000084000004e3b88a000200000400000007000000f7ef000000003f800000000000000000","20CE"
341,3,-347,-3,-163.88,-133.79,298.76,-152.94,-152.90,-164.79,59.95, ,"0018000000200000000040000084000004e3b88a000200000400000007000000f7ef000000003f800000000000000000","2187"
104,285,-392,-3,62.63,-285.64,222.86,-298.81,-298.77,61.20,59.95, ,"0018000000200000000040000084000004e3b88a000200000400000007000000f7ef000000003f800000000000000000","2128"
-194,400,-208,-2,252.44,-270.12,16.38,-269.60,-269.57,251.34,59.95, ,"0018000000200000000040000084000004e3b88a000200000400000007000000f7ef000000003f800000000000000000","216C"
-379,280,99,-0,294.39,-96.39,-199.69,-82.49,-82.49,294.25,59.95, ,"0018000000200000000040000084000004e3b88a000200000400000007000000f7ef000000003f800000000000000000","2117"
-341,-4,347,2,163.89,133.82,-298.80,152.96,152.93,164.80,59.95, ,"0018000000200000000040000084000004e3b88a000200000400000007000000f7ef000000003f800000000000000000","20C6"
-104,-284,392,4,-62.62,285.61,-222.85,298.78,298.73,-61.19,59.95, ,"0018000000200000000040000084000004e3b88a000200000400000007000000f7ef000000003f800000000000000000","212D"
194,-399,207,3,-252.42,270.10,-16.38,269.58,269.55,-251.34,59.95, ,"0018000000200000000040000084000004e3b88a000200000400000007000000f7ef000000003f800000000000000000","2124"
378,-280,-99,0,-294.37,96.38,199.66,82.50,82.51,-294.25,59.95, ,"0018000000200000000040000084000004e3b88a000200000400000007000000f7ef000000003f800000000000000000","20A7"
341,3,-347,-2,-163.88,-133.80,298.77,-152.92,-152.89,-164.80,59.95, ,"0018000000200000000040000084000004e3b88a000200000400000007000000f7ef000000003f800000000000000000","217D"
104,284,-391,-3,62.57,-285.60,222.88,-298.75,-298.71,61.18,59.95, ,"0018000000200000000040000084000004e3b88a000200000400000007000000f7ef000000003f800000000000000000","212B"
-194,399,-208,-2,252.42,-270.12,16.41,-269.61,-269.59,251.33,59.95, ,"0018000000200000000040000084000004e3b88a000200000400000007000000f7ef000000003f800000000000000000","2177"
-378,280,98,0,294.38,-96.39,-199.66,-82.51,-82.52,294.25,59.95, ,"0018000000200000000040000084000004e3b88a000200000400000007000000f7ef000000003f800000000000000000","20D7"
-341,-3,346,2,163.87,133.82,-298.77,152.95,152.89,164.81,59.95, ,"0018000000200000000040000084000004e3b88a000200000400000007000000f7ef000000003f800000000000000000","20CD"
-104,-285,392,3,-62.62,285.64,-222.88,298.80,298.75,-61.17,59.95, ,"0018000000200000000040000084000004e3b88a000200000400000007000000f7ef000000003f800000000000000000","212C"
194,-400,208,2,-252.45,270.12,-16.39,269.61,269.58,-251.32,59.95, ,"0018000000200000000040000084000004e3b88a000200000400000007000000f7ef000000003f800000000000000000","2114"
378,-280,-98,-0,-294.36,96.36,199.67,82.46,82.50,-294.25,59.95, ,"0018000000200000000040000084000004e3b88a000200000400000007000000f7ef000000003f800000000000000000","20D5"
340,3,-347,-3,-163.82,-133.84,298.74,-152.99,-152.91,-164.81,59.95, ,"0018000000200000000040000084000004e3b88a000200000400000007000000f7ef000000003f800000000000000000","2179"
103,285,-393,-5,62.64,-285.60,222.83,-298.78,-298.72,61.17,59.95, ,"0018000000200000000040000084000004e3b88a000200000400000007000000f7ef000000003f800000000000000000","212B"
-194,399,-208,-2,252.38,-270.07,16.41,-269.54,-269.54,251.32,59.95, ,"0018000000200000000040000084000004e3b88a000200000400000007000000f7ef000000003f800000000000000000","217C"
-378,280,98,0,294.33,-96.39,-199.62,-82.46,-82.52,294.25,59.95, ,"0018000000200000000040000084000004e3b88a000200000400000007000000f7ef000000003f800000000000000000","20D2"
-340,-3,347,3,163.89,133.75,-298.72,152.91,152.84,164.81,59.95, ,"0018000000200000000040000084000004e3b88a000200000400000007000000f7ef000000003f800000000000000000","20C4"
-104,-285,392,4,-62.53,285.53,-222.86,298.70,298.66,-61.16,59.95, ,"0018000000200000000040000084000004e3b88a000200000400000007000000f7ef000000003f800000000000000000","2127"
194,-400,208,3,-252.34,270.13,-16.49,269.59,269.61,-251.30,59.95, ,"0018000000200000000040000084000004e3b88a000200000400000007000000f7ef000000003f800000000000000000","2114"
378,-280,-98,-0,-294.41,96.50,199.60,82.58,82.63,-294.24,59.95, ,"0018000000200000000040000084000004e3b88a000200000400000007000000f7ef000000003f800000000000000000","20CC"
340,3,-347,-3,-164.02,-133.67,298.78,-152.83,-152.78,-164.83,59.95, ,"0018000000200000000040000084000004e3b88a000200000400000007000000f7ef000000003f800000000000000000","2177"
104,285,-392,-3,62.49,-285.59,222.94,-298.77,-298.73,61.13,59.95, ,"0018000000200000000040000084000004e3b88a000200000400000007000000f7ef000000003f800000000000000000","2132"
-195,399,-208,-3,252.41,-270.22,16.50,-269.71,-269.69,251.29,59.95, ,"0018000000200000000040000084000004e3b88a000200000400000007000000f7ef000000003f800000000000000000","2180"
-379,280,99,0,294.46,-96.52,-199.62,-82.62,-82.66,294.25,59.95, ,"0018000000200000000040000084000004e3b88a000200000400000007000000f7ef000000003f800000000000000000","20D6"
-341,-3,347,3,164.03,133.72,-298.82,152.86,152.80,164.86,59.95, ,"0018000000200000000040000084000004e3b88a000200000400000007000000f7ef000000003f800000000000000000","20BB"
-103,-285,392,4,-62.53,285.67,-222.97,298.85,298.80,-61.11,59.95, ,"0018000000200000000040000084000004e3b88a000200000400000007000000f7ef000000003f800000000000000000","212A"
194,-399,207,2,-252.43,270.21,-16.49,269.71,269.71,-251.29,59.95, ,"0018000000200000000040000084000004e3b88a000200000400000007000000f7ef000000003f800000000000000000","2125"
379,-280,-99,-0,-294.42,96.45,199.65,82.56,82.61,-294.27,59.95, ,"0018000000200000000040000084000004e3b88a000200000400000007000000f7ef000000003f800000000000000000","20D7"
341,3,-347,-3,-163.96,-133.80,298.84,-152.93,-152.86,-164.87,59.95, ,"0018000000200000000040000084000004e3b88a000200000400000007000000f7ef000000003f800000000000000000","2180"
103,285,-392,-4,62.55,-285.65,222.95,-298.80,-298.76,61.11,59.95, ,"0018000000200000000040000084000004e3b88a000200000400000007000000f7ef000000003f800000000000000000","2128"
-194,399,-207,-2,252.37,-270.17,16.50,-269.65,-269.66,251.29,59.95, ,"0018000000200000000040000084000004e3b88a000200000400000007000000f7ef000000003f800000000000000000","2186"
-377,280,99,2,294.37,-96.45,-199.62,-82.56,-82.60,294.28,59.95, ,"0018000000200000000040000084000004e3b88a000200000400000007000000f7ef000000003f800000000000000000","20D8"
-340,-4,347,3,163.95,133.76,-298.83,152.89,152.85,164.88,59.95, ,"0018000000200000000040000084000004e3b88a000200000400000007000000f7ef000000003f800000000000000000","20D4"
-104,-285,392,3,-62.49,285.63,-223.00,298.78,298.75,-61.10,59.95, ,"0018000000200000000040000084000004e3b88a000200000400000007000000f7ef000000003f800000000000000000","2121"
193,-399,207,2,-252.38,270.24,-16.54,269.70,269.68,-251.29,59.95, ,"0018000000200000000040000084000004e3b88a000200000400000007000000f7ef000000003f800000000000000000","212C"
378,-280,-99,-1,-294.42,96.50,199.62,82.58,82.60,-294.29,59.95, ,"0018000000200000000040000084000004e3b88a000200000400000007000000f7ef000000003f800000000000000000","20D3"
341,4,-347,-3,-163.99,-133.76,298.85,-152.92,-152.87,-164.90,59.95, ,"0018000000200000000040000084000004e3b88a000200000400000007000000f7ef000000003f800000000000000000","2184"
104,285,-392,-3,62.47,-285.68,222.98,-298.85,-298.80,61.09,59.95, ,"0018000000200000000040000084000004e3b88a000200000400000007000000f7ef000000003f800000000000000000","2136"
-163,387,-187,37,250.58,-269.30,15.21,-268.85,-268.84,251.26,59.95, ,"0018000000200000000040000084000004e3b88a000200000400000007000000f7ef000000003f800000000000000000","218F"
-109,289,13,193,259.57,-100.83,-194.71,-86.99,-86.99,293.52,59.95, ,"001a000020200000000040000084000004e3b88a000200000400000007000000f7ef000000003f800000000000000000","219B"
