"FID","RID","SID","03E2"
"FID=SEL-421-R117-V0-Z007007-D20060413","UPD1X LINHA RIBEIRO GONCALVES","SE COLINAS","1436"
"MONTH","DAY","YEAR","HOUR","MIN","SEC","MSEC","0ACA"
3,28,2019,8,41,47,686,"0449"
"EVENT_NUM","EVENT","LOCATION","FREQ","NFREQ","SAM/CYC_A","SAM/CYC_D","NUM_OF_CYC","SER_NUM","PRIM_VAL","CTR_IA","CTR_IB","CTR_IC","CTR_IG","PTR_VA","PTR_VB","PTR_VC","PTR_VS1","PTR_VS2","CTRW","CTRX","PTRY","PTRZ","GROUP","BREAKER1","HOUR_T1","MIN_T1","SEC_T1","MSEC_T1","HOUR_C1","MIN_C1","SEC_C1","MSEC_C1","BREAKER2","HOUR_T2","MIN_T2","SEC_T2","MSEC_T2","HOUR_C2","MIN_C2","SEC_C2","MSEC_C2","T_LED","TARGETS","MB_TRIGGER","MB_TRIP","IA_PF","IA_DEG_PF","IB_PF","IB_DEG_PF","IC_PF","IC_DEG_PF","IG_PF","IG_DEG_PF","3I2_PF","3I2_DEG_PF","I1_PF","I1_DEG_PF","VA_PF","VA_DEG_PF","VB_PF","VB_DEG_PF","VC_PF","VC_DEG_PF","VS1_PF","VS1_DEG_PF","VS2_PF","VS2_DEG_PF","V1MEM_PF","V1MEM_DEG_PF","V0_PF","V0_DEG_PF","V2_PF","V2_DEG_PF","V1_PF","V1_DEG_PF","IA","IA_DEG","IB","IB_DEG","IC","IC_DEG","IG","IG_DEG","3I2","3I2_DEG","I1","I1_DEG","VA","VA_DEG","VB","VB_DEG","VC","VC_DEG","VS1","VS1_DEG","VS2","VS2_DEG","V1MEM","V1MEM_DEG","V0","V0_DEG","V2","V2_DEG","V1","V1_DEG","EFCC"
13360,"CAG T",68.20,59.95,60,8,8,90.000,"2005290164","YES",1.0,1.0,1.0,1.0,1.0,1.0,1.0,1.0,1.0,2200,2200,4500,4500,1,"OPEN",8,41,47,695, , , , ,"OPEN",8,41,47,695, , , , ,47140,"COMM ZONE_2 A_PHASE C_PHASE GROUND 50","4003000010","421F000010",354,7.81,360,-112.86,353,126.23,1066,21.17,16,125.97,355,7.06,309,0.00,310,-119.76,309,119.94,309,-119.50,310,-119.80,309,0.06,1,-38.73,1,-178.55,309,0.06,7860,-105.04,264,-131.49,8752,50.96,16875,-185.57,12270,-151.01,5291,-85.12,166,-4.43,348,-121.50,178,119.86,349,-121.59,349,-121.67,268,1.19,62,-123.99,51,122.82,231,-1.85,"7083"
"IA(A)","IB(A)","IC(A)","IG(A)","VA(kV)","VB(kV)","VC(kV)","VS1(kV)","VS2(kV)","V1MEM(kV)","FREQ","TRIG","LOPHC SPOA SPOB SPOC SPO 3PO 27APO 27BPO SOTFE ILOP LOP ZLOAD ZLIN ZLOUT FIDEN FSA FSB FSC DFAULT ER EAFSRC * * * M1P M2P M3P M4P M5P * * * 50Q1 50Q2 50Q3 50Q4 67Q1 67Q2 67Q3 67Q4 51S1 51S1T 51S1R * 51S2 51S2T 51S2R * 51S3 51S3T 51S3R * * * * * Z1G Z2G Z3G Z4G Z5G * * * 67G1 67G2 67G3 67G4 67G1T 67G2T 67G3T 67G4T RMB8A RMB7A RMB6A RMB5A RMB4A RMB3A RMB2A RMB1A TMB8A TMB7A TMB6A TMB5A TMB4A TMB3A TMB2A TMB1A RMB8B RMB7B RMB6B RMB5B RMB4B RMB3B RMB2B RMB1B TMB8B TMB7B TMB6B TMB5B TMB4B TMB3B TMB2B TMB1B ROKA RBADA CBADA LBOKA ANOKA DOKA * * ROKB RBADB CBADB LBOKB ANOKB DOKB * * TPA TPB TPC TRIP 3PT SPT TPA1 TPB1 TPC1 TPA2 TPB2 TPC2 TOP ULTR ULMTR1 ULMTR2 52ACL1 52BCL1 52CCL1 52AAL1 52BAL1 52CAL1 52AA1 52AB1 52AC1 * 52ACL2 52BCL2 52CCL2 52AAL2 52BAL2 52CAL2 BK2LO BK1CL BK2CL LEADBK0 LEADBK1 LEADBK2 FOLBK0 FOLBK1 TLED_1 TLED_2 TLED_3 TLED_4 TLED_5 TLED_6 TLED_7 TLED_8 TLED_9 TLED_10 TLED_11 TLED_12 TLED_13 TLED_14 TLED_15 TLED_16 M1PT M2PT M3PT M4PT M5PT * * * Z1GT Z2GT Z3GT Z4GT Z5GT * * * XAG5 XBG5 XCG5 CVTBLH CVTBL VPOLV * * OSB2 OSB3 OSB4 OSB5 OSB OSTI OSTO OST F32P R32P F32Q R32Q 32QF 32QR 32SPOF 32SPOR F32I R32I F32V R32V F32QG R32QG 32GF 32GR RXPRM COMPRM TRPRM DTR SOTFT E3PT E3PT1 E3PT2 50P1 50P2 50P3 50P4 67P1 67P2 67P3 67P4 67Q1T 67Q2T 67Q3T 67Q4T * * * * PT Z3RB KEY EKEY ECTT 27AWI 27BWI 27CWI 59VP 59VS1 25ENBK1 SFZBK1 SFBK1 25W1BK1 25W2BK1 25A1BK1 59VS2 25ENBK2 SFZBK2 SFBK2 25W1BK2 25W2BK2 25A1BK2 25A2BK2 FOC1 FOBF1 BFTRIP1 BFTR1 BFULTR1 * * * RTSA1 RTSB1 RTSC1 RT1 FBFA1 FBFB1 FBFC1 FBF1 FOC2 FOBF2 BFTRIP2 BFTR2 BFULTR2 * * * RTSA2 RTSB2 RTSC2 RT2 FBFA2 FBFB2 FBFC2 FBF2 * IN107 IN106 IN105 IN104 IN103 IN102 IN101 OUT108 OUT107 OUT106 OUT105 OUT104 OUT103 OUT102 OUT101 PSV08 PSV07 PSV06 PSV05 PSV04 PSV03 PSV02 PSV01 ASV008 ASV007 ASV006 ASV005 ASV004 ASV003 ASV002 ASV001 MAB5 MBC5 MCA5 * MAG1 MBG1 MCG1 * MAG2 MBG2 MCG2 * MAG3 MBG3 MCG3 * MAG4 MBG4 MCG4 * MAG5 MBG5 MCG5 * XAG1 XBG1 XCG1 * XAG2 XBG2 XCG2 * XAG3 XBG3 XCG3 * XAG4 XBG4 XCG4 * X6ABC X7ABC 50ABC UBOSB OSBA OSBB OSBC OSB1","F58D"
-294,324,-31,-2,-231.85,293.21,-61.64,292.26,293.68,-232.19,59.95, ,"0014000000200000004000000084000004e3b88a000200000400000007000000f7ef000000003f800000000000000000","213D"
-347,119,227,-2,-308.63,136.74,170.64,135.29,137.16,-308.78,59.95, ,"0014000000200000004000000084000004e3b88a000200000400000007000000f7ef000000003f800000000000000000","214F"
-196,-156,352,-1,-204.66,-99.83,302.98,-100.92,-99.71,-204.50,59.95, ,"0014000000200000004000000084000004e3b88a000200000400000007000000f7ef000000003f800000000000000000","219F"
70,-339,270,1,19.21,-277.97,257.86,-278.05,-278.21,19.58,59.95, ,"0014000000200000004000000084000004e3b88a000200000400000007000000f7ef000000003f800000000000000000","20C8"
295,-324,32,3,231.84,-293.25,61.69,-292.30,-293.72,232.18,59.95, ,"0014000000200000004000000084000004e3b88a000200000400000007000000f7ef000000003f800000000000000000","20E3"
348,-119,-226,2,308.68,-136.77,-170.64,-135.33,-137.19,308.78,59.95, ,"0014000000200000004000000084000004e3b88a000200000400000007000000f7ef000000003f800000000000000000","21AF"
196,156,-352,0,204.69,99.85,-303.03,100.94,99.72,204.51,59.95, ,"0014000000200000004000000084000004e3b88a000200000400000007000000f7ef000000003f800000000000000000","208C"
-70,339,-271,-2,-19.20,277.98,-257.89,278.07,278.22,-19.57,59.95, ,"0014000000200000004000000084000004e3b88a000200000400000007000000f7ef000000003f800000000000000000","2129"
-295,324,-32,-3,-231.86,293.26,-61.66,292.31,293.74,-232.18,59.95, ,"0014000000200000004000000084000004e3b88a000200000400000007000000f7ef000000003f800000000000000000","2140"
-347,119,225,-3,-308.71,136.76,170.68,135.31,137.19,-308.79,59.95, ,"0014000000200000004000000084000004e3b88a000200000400000007000000f7ef000000003f800000000000000000","2150"
-196,-156,351,-1,-204.68,-99.87,303.04,-100.97,-99.75,-204.52,59.95, ,"0014000000200000004000000084000004e3b88a000200000400000007000000f7ef000000003f800000000000000000","21A3"
70,-339,271,2,19.23,-277.98,257.88,-278.09,-278.23,19.56,59.95, ,"0014000000200000004000000084000004e3b88a000200000400000007000000f7ef000000003f800000000000000000","20D3"
295,-324,32,3,231.87,-293.24,61.63,-292.28,-293.70,232.19,59.95, ,"0014000000200000004000000084000004e3b88a000200000400000007000000f7ef000000003f800000000000000000","20E5"
347,-118,-226,3,308.67,-136.71,-170.70,-135.25,-137.12,308.80,59.95, ,"0014000000200000004000000084000004e3b88a000200000400000007000000f7ef000000003f800000000000000000","2197"
196,156,-351,1,204.65,99.86,-303.01,100.96,99.76,204.52,59.95, ,"0014000000200000004000000084000004e3b88a000200000400000007000000f7ef000000003f800000000000000000","208E"
-69,339,-271,-1,-19.21,277.92,-257.85,278.03,278.18,-19.56,59.95, ,"0014000000200000004000000084000004e3b88a000200000400000007000000f7ef000000003f800000000000000000","2127"
-294,324,-32,-2,-231.83,293.20,-61.65,292.25,293.66,-232.18,59.95, ,"0014000000200000004000000084000004e3b88a000200000400000007000000f7ef000000003f800000000000000000","2138"
-346,119,225,-2,-308.66,136.74,170.67,135.29,137.15,-308.80,59.95, ,"0014000000200000004000000084000004e3b88a000200000400000007000000f7ef000000003f800000000000000000","214A"
-196,-156,351,-1,-204.69,-99.81,303.01,-100.92,-99.71,-204.52,59.95, ,"0014000000200000004000000084000004e3b88a000200000400000007000000f7ef000000003f800000000000000000","2192"
69,-339,271,1,19.21,-277.92,257.84,-278.04,-278.17,19.56,59.95, ,"0014000000200000004000000084000004e3b88a000200000400000007000000f7ef000000003f800000000000000000","20CC"
294,-324,32,2,231.85,-293.23,61.67,-292.29,-293.70,232.18,59.95, ,"0014000000200000004000000084000004e3b88a000200000400000007000000f7ef000000003f800000000000000000","20E4"
346,-119,-226,2,308.68,-136.78,-170.64,-135.32,-137.19,308.79,59.95, ,"0014000000200000004000000084000004e3b88a000200000400000007000000f7ef000000003f800000000000000000","21AE"
196,156,-351,1,204.68,99.84,-303.01,100.95,99.71,204.52,59.95, ,"0014000000200000004000000084000004e3b88a000200000400000007000000f7ef000000003f800000000000000000","2089"
-69,340,-271,-1,-19.24,277.96,-257.86,278.08,278.21,-19.55,59.95, ,"0014000000200000004000000084000004e3b88a000200000400000007000000f7ef000000003f800000000000000000","2125"
-294,324,-32,-3,-231.85,293.24,-61.67,292.31,293.73,-232.18,59.95, ,"0014000000200000004000000084000004e3b88a000200000400000007000000f7ef000000003f800000000000000000","213C"
-347,119,225,-3,-308.65,136.74,170.64,135.28,137.16,-308.80,59.95, ,"0014000000200000004000000084000004e3b88a000200000400000007000000f7ef000000003f800000000000000000","2148"
-196,-156,351,-1,-204.66,-99.84,303.01,-100.97,-99.75,-204.53,59.95, ,"0014000000200000004000000084000004e3b88a000200000400000007000000f7ef000000003f800000000000000000","219C"
69,-339,271,1,19.19,-277.93,257.87,-278.05,-278.20,19.55,59.95, ,"0014000000200000004000000084000004e3b88a000200000400000007000000f7ef000000003f800000000000000000","20D1"
294,-324,33,3,231.83,-293.23,61.67,-292.27,-293.70,232.17,59.95, ,"0014000000200000004000000084000004e3b88a000200000400000007000000f7ef000000003f800000000000000000","20E1"
347,-119,-225,3,308.65,-136.76,-170.63,-135.29,-137.17,308.79,59.95, ,"0014000000200000004000000084000004e3b88a000200000400000007000000f7ef000000003f800000000000000000","21AD"
197,155,-351,1,204.72,99.80,-303.01,100.92,99.70,204.53,59.95, ,"0014000000200000004000000084000004e3b88a000200000400000007000000f7ef000000003f800000000000000000","207D"
-69,339,-271,-1,-19.16,277.93,-257.90,278.04,278.18,-19.54,59.95, ,"0014000000200000004000000084000004e3b88a000200000400000007000000f7ef000000003f800000000000000000","2127"
-293,324,-32,-2,-231.86,293.26,-61.69,292.30,293.72,-232.17,59.95, ,"0014000000200000004000000084000004e3b88a000200000400000007000000f7ef000000003f800000000000000000","213C"
-347,119,225,-3,-308.72,136.80,170.67,135.34,137.19,-308.80,59.95, ,"0014000000200000004000000084000004e3b88a000200000400000007000000f7ef000000003f800000000000000000","2146"
-197,-155,351,-1,-204.72,-99.84,303.05,-100.93,-99.71,-204.54,59.95, ,"0014000000200000004000000084000004e3b88a000200000400000007000000f7ef000000003f800000000000000000","2196"
68,-339,271,0,19.21,-277.98,257.90,-278.09,-278.21,19.54,59.95, ,"0014000000200000004000000084000004e3b88a000200000400000007000000f7ef000000003f800000000000000000","20CB"
294,-324,32,3,231.86,-293.26,61.68,-292.32,-293.72,232.17,59.95, ,"0014000000200000004000000084000004e3b88a000200000400000007000000f7ef000000003f800000000000000000","20E5"
347,-119,-225,3,308.71,-136.75,-170.71,-135.31,-137.15,308.81,59.95, ,"0014000000200000004000000084000004e3b88a000200000400000007000000f7ef000000003f800000000000000000","2198"
196,156,-350,2,204.68,99.87,-303.05,100.96,99.74,204.55,59.95, ,"0014000000200000004000000084000004e3b88a000200000400000007000000f7ef000000003f800000000000000000","2097"
-70,339,-271,-1,-19.23,277.97,-257.86,278.08,278.20,-19.54,59.95, ,"0014000000200000004000000084000004e3b88a000200000400000007000000f7ef000000003f800000000000000000","2123"
-294,324,-33,-4,-231.86,293.24,-61.63,292.29,293.69,-232.18,59.95, ,"0014000000200000004000000084000004e3b88a000200000400000007000000f7ef000000003f800000000000000000","2147"
-347,119,225,-3,-308.65,136.71,170.70,135.27,137.12,-308.81,59.95, ,"0014000000200000004000000084000004e3b88a000200000400000007000000f7ef000000003f800000000000000000","213E"
-196,-155,351,-0,-204.67,-99.84,302.99,-100.93,-99.72,-204.54,59.95, ,"0014000000200000004000000084000004e3b88a000200000400000007000000f7ef000000003f800000000000000000","21A5"
70,-338,271,3,19.20,-277.91,257.82,-278.01,-278.15,19.54,59.95, ,"0014000000200000004000000084000004e3b88a000200000400000007000000f7ef000000003f800000000000000000","20BA"
294,-324,33,3,231.84,-293.22,61.63,-292.26,-293.67,232.18,59.95, ,"0014000000200000004000000084000004e3b88a000200000400000007000000f7ef000000003f800000000000000000","20E3"
346,-119,-225,2,308.65,-136.76,-170.65,-135.31,-137.17,308.80,59.95, ,"0014000000200000004000000084000004e3b88a000200000400000007000000f7ef000000003f800000000000000000","219E"
196,154,-351,-1,204.69,99.79,-302.98,100.90,99.68,204.54,59.95, ,"0014000000200000004000000084000004e3b88a000200000400000007000000f7ef000000003f800000000000000000","20CB"
-69,338,-271,-2,-19.19,277.90,-257.82,278.01,278.14,-19.54,59.95, ,"0014000000200000004000000084000004e3b88a000200000400000007000000f7ef000000003f800000000000000000","2121"
-294,323,-33,-3,-231.84,293.22,-61.64,292.28,293.67,-232.17,59.95, ,"0014000000200000004000000084000004e3b88a000200000400000007000000f7ef000000003f800000000000000000","213E"
-347,119,225,-2,-308.69,136.81,170.62,135.35,137.20,-308.80,59.95, ,"0014000000200000004000000084000004e3b88a000200000400000007000000f7ef000000003f800000000000000000","2140"
-196,-155,351,1,-204.71,-99.80,302.99,-100.91,-99.69,-204.54,59.95, ,"0014000000200000004000000084000004e3b88a000200000400000007000000f7ef000000003f800000000000000000","2174"
69,-338,271,3,19.19,-277.94,257.86,-278.06,-278.18,19.54,59.95, ,"0014000000200000004000000084000004e3b88a000200000400000007000000f7ef000000003f800000000000000000","20D9"
294,-323,33,3,231.85,-293.25,61.67,-292.29,-293.70,232.17,59.95, ,"0014000000200000004000000084000004e3b88a000200000400000007000000f7ef000000003f800000000000000000","20E6"
347,-120,-225,2,308.72,-136.78,-170.66,-135.32,-137.19,308.80,59.95, ,"0014000000200000004000000084000004e3b88a000200000400000007000000f7ef000000003f800000000000000000","219B"
197,155,-351,-0,204.70,99.82,-303.00,100.94,99.72,204.54,59.95, ,"0014000000200000004000000084000004e3b88a000200000400000007000000f7ef000000003f800000000000000000","20AD"
-69,339,-271,-2,-19.19,277.92,-257.86,278.04,278.18,-19.53,59.95, ,"0014000000200000004000000084000004e3b88a000200000400000007000000f7ef000000003f800000000000000000","212E"
-294,324,-32,-3,-231.82,293.22,-61.68,292.27,293.69,-232.16,59.95, ,"0014000000200000004000000084000004e3b88a000200000400000007000000f7ef000000003f800000000000000000","2140"
-347,120,225,-2,-308.67,136.78,170.63,135.32,137.18,-308.80,59.95, ,"0014000000200000004000000084000004e3b88a000200000400000007000000f7ef000000003f800000000000000000","2141"
-197,-155,351,-0,-204.73,-99.76,302.99,-100.88,-99.67,-204.55,59.95, ,"0014000000200000004000000084000004e3b88a000200000400000007000000f7ef000000003f800000000000000000","21AD"
69,-339,272,2,19.15,-277.90,257.88,-278.02,-278.17,19.53,59.95, ,"0014000000200000004000000084000004e3b88a000200000400000007000000f7ef000000003f800000000000000000","20CE"
295,-324,33,3,231.84,-293.26,61.68,-292.31,-293.73,232.16,59.95, ,"0014000000200000004000000084000004e3b88a000200000400000007000000f7ef000000003f800000000000000000","20E4"
347,-119,-226,2,308.69,-136.81,-170.63,-135.35,-137.20,308.80,59.95, ,"0014000000200000004000000084000004e3b88a000200000400000007000000f7ef000000003f800000000000000000","219C"
196,155,-351,0,204.71,99.81,-303.00,100.92,99.70,204.55,59.95, ,"0014000000200000004000000084000004e3b88a000200000400000007000000f7ef000000003f800000000000000000","207C"
-69,339,-272,-2,-19.19,277.94,-257.89,278.06,278.19,-19.52,59.95, ,"0014000000200000004000000084000004e3b88a000200000400000007000000f7ef000000003f800000000000000000","2136"
-294,324,-33,-3,-231.85,293.24,-61.67,292.30,293.71,-232.16,59.95, ,"0014000000200000004000000084000004e3b88a000200000400000007000000f7ef000000003f800000000000000000","2138"
-347,119,226,-2,-308.68,136.76,170.67,135.30,137.16,-308.80,59.95, ,"0014000000200000004000000084000004e3b88a000200000400000007000000f7ef000000003f800000000000000000","2149"
-196,-155,351,-0,-204.67,-99.83,302.99,-100.94,-99.70,-204.55,59.95, ,"0014000000200000004000000084000004e3b88a000200000400000007000000f7ef000000003f800000000000000000","21A4"
69,-338,271,2,19.21,-277.91,257.85,-278.03,-278.17,19.52,59.95, ,"0014000000200000004000000084000004e3b88a000200000400000007000000f7ef000000003f800000000000000000","20C7"
294,-323,32,3,231.80,-293.19,61.69,-292.26,-293.66,232.16,59.95, ,"0014000000200000004000000084000004e3b88a000200000400000007000000f7ef000000003f800000000000000000","20E6"
347,-119,-225,3,308.64,-136.75,-170.63,-135.31,-137.16,308.80,59.95, ,"0014000000200000004000000084000004e3b88a000200000400000007000000f7ef000000003f800000000000000000","219B"
196,155,-351,0,204.72,99.75,-302.98,100.86,99.64,204.55,59.95, ,"0014000000200000004000000084000004e3b88a000200000400000007000000f7ef000000003f800000000000000000","2096"
-70,339,-271,-2,-19.11,277.84,-257.86,277.97,278.10,-19.52,59.95, ,"0014000000200000004000000084000004e3b88a000200000400000007000000f7ef000000003f800000000000000000","2121"
-294,324,-32,-2,-231.77,293.24,-61.74,292.29,293.70,-232.15,59.95, ,"0014000000200000004000000084000004e3b88a000200000400000007000000f7ef000000003f800000000000000000","213B"
-347,120,225,-2,-308.72,136.86,170.58,135.42,137.27,-308.79,59.95, ,"0014000000200000004000000084000004e3b88a000200000400000007000000f7ef000000003f800000000000000000","2149"
-196,-155,351,-0,-204.83,-99.71,303.01,-100.81,-99.60,-204.56,59.95, ,"0014000000200000004000000084000004e3b88a000200000400000007000000f7ef000000003f800000000000000000","218B"
70,-340,271,1,19.09,-277.89,257.92,-278.01,-278.14,19.50,59.95, ,"0014000000200000004000000084000004e3b88a000200000400000007000000f7ef000000003f800000000000000000","20BB"
294,-325,33,2,231.84,-293.31,61.74,-292.36,-293.77,232.14,59.95, ,"0014000000200000004000000084000004e3b88a000200000400000007000000f7ef000000003f800000000000000000","20E3"
347,-120,-225,1,308.77,-136.92,-170.59,-135.47,-137.31,308.80,59.95, ,"0014000000200000004000000084000004e3b88a000200000400000007000000f7ef000000003f800000000000000000","219D"
196,155,-351,-0,204.82,99.71,-303.03,100.81,99.61,204.58,59.95, ,"0014000000200000004000000084000004e3b88a000200000400000007000000f7ef000000003f800000000000000000","20AE"
-70,339,-271,-2,-19.13,277.95,-257.94,278.05,278.19,-19.48,59.95, ,"0014000000200000004000000084000004e3b88a000200000400000007000000f7ef000000003f800000000000000000","2128"
-294,325,-33,-2,-231.87,293.34,-61.73,292.40,293.79,-232.14,59.95, ,"0014000000200000004000000084000004e3b88a000200000400000007000000f7ef000000003f800000000000000000","213F"
-347,119,226,-2,-308.74,136.88,170.61,135.43,137.27,-308.82,59.95, ,"0014000000200000004000000084000004e3b88a000200000400000007000000f7ef000000003f800000000000000000","214B"
-196,-155,352,0,-204.73,-99.75,303.00,-100.86,-99.65,-204.59,59.95, ,"0014000000200000004000000084000004e3b88a000200000400000007000000f7ef000000003f800000000000000000","216E"
69,-338,272,2,19.14,-277.93,257.92,-278.05,-278.17,19.48,59.95, ,"0014000000200000004000000084000004e3b88a000200000400000007000000f7ef000000003f800000000000000000","20D1"
294,-323,32,3,231.79,-293.32,61.78,-292.36,-293.74,232.14,59.95, ,"0014000000200000004000000084000004e3b88a000200000400000007000000f7ef000000003f800000000000000000","20E7"
347,-119,-226,3,308.68,-136.86,-170.58,-135.40,-137.25,308.82,59.95, ,"0014000000200000004000000084000004e3b88a000200000400000007000000f7ef000000003f800000000000000000","21A8"
197,156,-352,1,204.77,99.75,-303.02,100.86,99.63,204.60,59.95, ,"0014000000200000004000000084000004e3b88a000200000400000007000000f7ef000000003f800000000000000000","208C"
-69,339,-272,-2,-19.08,277.93,-257.98,278.04,278.16,-19.47,59.95, ,"0014000000200000004000000084000004e3b88a000200000400000007000000f7ef000000003f800000000000000000","2132"
-294,323,-32,-3,-231.76,293.32,-61.81,292.37,293.75,-232.13,59.95, ,"0014000000200000004000000084000004e3b88a000200000400000007000000f7ef000000003f800000000000000000","2139"
-347,118,226,-3,-308.72,136.89,170.60,135.43,137.27,-308.83,59.95, ,"0014000000200000004000000084000004e3b88a000200000400000007000000f7ef000000003f800000000000000000","214A"
-197,-155,352,-0,-204.82,-99.75,303.08,-100.87,-99.64,-204.62,59.95, ,"0014000000200000004000000084000004e3b88a000200000400000007000000f7ef000000003f800000000000000000","219E"
69,-339,272,2,19.06,-277.98,257.96,-278.08,-278.21,19.45,59.95, ,"0014000000200000004000000084000004e3b88a000200000400000007000000f7ef000000003f800000000000000000","20D7"
