"FID","RID","SID","03E2"
"FID=SEL-421-R117-V0-Z007007-D20060413","UPD2X LINHA COLINAS","SE RIBEIRO GONÇALVES","14bb"
"MONTH","DAY","YEAR","HOUR","MIN","SEC","MSEC","0ACA"
3,28,2019,8,41,47,689,"044C"
"EVENT_NUM","EVENT","LOCATION","FREQ","NFREQ","SAM/CYC_A","SAM/CYC_D","NUM_OF_CYC","SER_NUM","PRIM_VAL","CTR_IA","CTR_IB","CTR_IC","CTR_IG","PTR_VA","PTR_VB","PTR_VC","PTR_VS1","PTR_VS2","CTRW","CTRX","PTRY","PTRZ","GROUP","BREAKER1","HOUR_T1","MIN_T1","SEC_T1","MSEC_T1","HOUR_C1","MIN_C1","SEC_C1","MSEC_C1","BREAKER2","HOUR_T2","MIN_T2","SEC_T2","MSEC_T2","HOUR_C2","MIN_C2","SEC_C2","MSEC_C2","T_LED","TARGETS","MB_TRIGGER","MB_TRIP","IA_PF","IA_DEG_PF","IB_PF","IB_DEG_PF","IC_PF","IC_DEG_PF","IG_PF","IG_DEG_PF","3I2_PF","3I2_DEG_PF","I1_PF","I1_DEG_PF","VA_PF","VA_DEG_PF","VB_PF","VB_DEG_PF","VC_PF","VC_DEG_PF","VS1_PF","VS1_DEG_PF","VS2_PF","VS2_DEG_PF","V1MEM_PF","V1MEM_DEG_PF","V0_PF","V0_DEG_PF","V2_PF","V2_DEG_PF","V1_PF","V1_DEG_PF","IA","IA_DEG","IB","IB_DEG","IC","IC_DEG","IG","IG_DEG","3I2","3I2_DEG","I1","I1_DEG","VA","VA_DEG","VB","VB_DEG","VC","VC_DEG","VS1","VS1_DEG","VS2","VS2_DEG","V1MEM","V1MEM_DEG","V0","V0_DEG","V2","V2_DEG","V1","V1_DEG","EFCC"
11632,"CAG T",308.00,59.95,60,8,8,90.125,"2005290163","YES",1.0,1.0,1.0,1.0,1.0,1.0,1.0,1.0,1.0,2200,2200,4500,4500,3,"OPEN",8,41,47,693, , , , ,"OPEN",8,41,47,693, , , , ,43044,"COMM ZONE_2 A_PHASE C_PHASE 50","0042000010","035E000010",392,152.66,400,33.60,404,-87.88,1196,98.38,20,-12.52,399,152.79,301,0.00,302,-120.65,299,119.84,310,-117.46,310,-117.47,301,-0.27,1,172.80,2,55.03,301,-0.27,1861,-116.42,452,31.20,1886,40.10,4199,-45.13,3331,-150.33,1141,-105.13,207,4.28,319,-121.99,198,114.80,324,-118.76,324,-118.76,271,7.17,29,-120.97,48,112.91,241,-1.07,"6DEB"
"IA(A)","IB(A)","IC(A)","IG(A)","VA(kV)","VB(kV)","VC(kV)","VS1(kV)","VS2(kV)","V1MEM(kV)","FREQ","TRIG","LOPHC SPOA SPOB SPOC SPO 3PO 27APO 27BPO SOTFE ILOP LOP ZLOAD ZLIN ZLOUT FIDEN FSA FSB FSC DFAULT ER EAFSRC * * * M1P M2P M3P M4P M5P * * * 50Q1 50Q2 50Q3 50Q4 67Q1 67Q2 67Q3 67Q4 51S1 51S1T 51S1R * 51S2 51S2T 51S2R * 51S3 51S3T 51S3R * * * * * Z1G Z2G Z3G Z4G Z5G * * * 67G1 67G2 67G3 67G4 67G1T 67G2T 67G3T 67G4T RMB8A RMB7A RMB6A RMB5A RMB4A RMB3A RMB2A RMB1A TMB8A TMB7A TMB6A TMB5A TMB4A TMB3A TMB2A TMB1A RMB8B RMB7B RMB6B RMB5B RMB4B RMB3B RMB2B RMB1B TMB8B TMB7B TMB6B TMB5B TMB4B TMB3B TMB2B TMB1B ROKA RBADA CBADA LBOKA ANOKA DOKA * * ROKB RBADB CBADB LBOKB ANOKB DOKB * * TPA TPB TPC TRIP 3PT SPT TPA1 TPB1 TPC1 TPA2 TPB2 TPC2 TOP ULTR ULMTR1 ULMTR2 52ACL1 52BCL1 52CCL1 52AAL1 52BAL1 52CAL1 52AA1 52AB1 52AC1 * 52ACL2 52BCL2 52CCL2 52AAL2 52BAL2 52CAL2 BK2LO BK1CL BK2CL LEADBK0 LEADBK1 LEADBK2 FOLBK0 FOLBK1 TLED_1 TLED_2 TLED_3 TLED_4 TLED_5 TLED_6 TLED_7 TLED_8 TLED_9 TLED_10 TLED_11 TLED_12 TLED_13 TLED_14 TLED_15 TLED_16 M1PT M2PT M3PT M4PT M5PT * * * Z1GT Z2GT Z3GT Z4GT Z5GT * * * XAG5 XBG5 XCG5 CVTBLH CVTBL VPOLV * * OSB2 OSB3 OSB4 OSB5 OSB OSTI OSTO OST F32P R32P F32Q R32Q 32QF 32QR 32SPOF 32SPOR F32I R32I F32V R32V F32QG R32QG 32GF 32GR RXPRM COMPRM TRPRM DTR SOTFT E3PT E3PT1 E3PT2 50P1 50P2 50P3 50P4 67P1 67P2 67P3 67P4 67Q1T 67Q2T 67Q3T 67Q4T * * * * PT Z3RB KEY EKEY ECTT 27AWI 27BWI 27CWI 59VP 59VS1 25ENBK1 SFZBK1 SFBK1 25W1BK1 25W2BK1 25A1BK1 59VS2 25ENBK2 SFZBK2 SFBK2 25W1BK2 25W2BK2 25A1BK2 25A2BK2 FOC1 FOBF1 BFTRIP1 BFTR1 BFULTR1 * * * RTSA1 RTSB1 RTSC1 RT1 FBFA1 FBFB1 FBFC1 FBF1 FOC2 FOBF2 BFTRIP2 BFTR2 BFULTR2 * * * RTSA2 RTSB2 RTSC2 RT2 FBFA2 FBFB2 FBFC2 FBF2 * IN107 IN106 IN105 IN104 IN103 IN102 IN101 OUT108 OUT107 OUT106 OUT105 OUT104 OUT103 OUT102 OUT101 PSV08 PSV07 PSV06 PSV05 PSV04 PSV03 PSV02 PSV01 ASV008 ASV007 ASV006 ASV005 ASV004 ASV003 ASV002 ASV001 MAB5 MBC5 MCA5 * MAG1 MBG1 MCG1 * MAG2 MBG2 MCG2 * MAG3 MBG3 MCG3 * MAG4 MBG4 MCG4 * MAG5 MBG5 MCG5 * XAG1 XBG1 XCG1 * XAG2 XBG2 XCG2 * XAG3 XBG3 XCG3 * XAG4 XBG4 XCG4 * X6ABC X7ABC 50ABC UBOSB OSBA OSBB OSBC OSB1","F58D"
354,-326,-26,1,-300.75,145.88,156.61,134.65,134.65,-300.42,59.95, ,"0018000000200000000040000084000004e3b88a000200000400000007000000f7ef000000003f800000000000000000","210D"
370,-68,-304,-2,-206.35,-83.36,291.07,-102.14,-102.11,-207.07,59.95, ,"0018000000200000000040000084000004e3b88a000200000400000007000000f7ef000000003f800000000000000000","217B"
169,231,-403,-4,8.92,-263.79,255.03,-279.13,-279.07,7.57,59.95, ,"0018000000200000000040000084000004e3b88a000200000400000007000000f7ef000000003f800000000000000000","20BF"
-130,394,-266,-2,218.97,-289.71,69.62,-292.62,-292.58,217.78,59.95, ,"0018000000200000000040000084000004e3b88a000200000400000007000000f7ef000000003f800000000000000000","2195"
-353,327,26,-0,300.77,-145.92,-156.59,-134.69,-134.71,300.42,59.95, ,"0018000000200000000040000084000004e3b88a000200000400000007000000f7ef000000003f800000000000000000","216B"
-370,68,304,2,206.40,83.33,-291.09,102.13,102.09,207.09,59.95, ,"0018000000200000000040000084000004e3b88a000200000400000007000000f7ef000000003f800000000000000000","2070"
-170,-231,404,3,-8.92,263.83,-255.06,279.16,279.12,-7.56,59.95, ,"0018000000200000000040000084000004e3b88a000200000400000007000000f7ef000000003f800000000000000000","20B3"
130,-394,266,2,-219.00,289.74,-69.61,292.63,292.61,-217.78,59.95, ,"0018000000200000000040000084000004e3b88a000200000400000007000000f7ef000000003f800000000000000000","2129"
353,-326,-27,-0,-300.81,145.92,156.60,134.69,134.71,-300.43,59.95, ,"0018000000200000000040000084000004e3b88a000200000400000007000000f7ef000000003f800000000000000000","2132"
370,-67,-304,-2,-206.35,-83.39,291.08,-102.18,-102.14,-207.10,59.95, ,"0018000000200000000040000084000004e3b88a000200000400000007000000f7ef000000003f800000000000000000","217F"
170,231,-403,-3,8.96,-263.85,255.06,-279.18,-279.15,7.55,59.95, ,"0018000000200000000040000084000004e3b88a000200000400000007000000f7ef000000003f800000000000000000","20BC"
-130,394,-266,-3,219.02,-289.69,69.58,-292.59,-292.58,217.78,59.95, ,"0018000000200000000040000084000004e3b88a000200000400000007000000f7ef000000003f800000000000000000","219B"
-354,326,27,-1,300.77,-145.85,-156.63,-134.62,-134.63,300.44,59.95, ,"0018000000200000000040000084000004e3b88a000200000400000007000000f7ef000000003f800000000000000000","2166"
-370,68,304,2,206.31,83.42,-291.07,102.20,102.15,207.10,59.95, ,"0018000000200000000040000084000004e3b88a000200000400000007000000f7ef000000003f800000000000000000","2061"
-170,-231,403,3,-8.94,263.78,-255.00,279.10,279.07,-7.55,59.95, ,"0018000000200000000040000084000004e3b88a000200000400000007000000f7ef000000003f800000000000000000","20AF"
131,-394,266,3,-218.97,289.64,-69.58,292.54,292.55,-217.78,59.95, ,"0018000000200000000040000084000004e3b88a000200000400000007000000f7ef000000003f800000000000000000","2142"
355,-326,-27,2,-300.76,145.87,156.61,134.65,134.68,-300.44,59.95, ,"0018000000200000000040000084000004e3b88a000200000400000007000000f7ef000000003f800000000000000000","2115"
371,-68,-304,-1,-206.37,-83.33,291.05,-102.10,-102.07,-207.10,59.95, ,"0018000000200000000040000084000004e3b88a000200000400000007000000f7ef000000003f800000000000000000","2173"
170,230,-404,-4,8.93,-263.78,255.02,-279.10,-279.08,7.55,59.95, ,"0018000000200000000040000084000004e3b88a000200000400000007000000f7ef000000003f800000000000000000","20B2"
-131,394,-266,-4,219.00,-289.72,69.62,-292.62,-292.62,217.78,59.95, ,"0018000000200000000040000084000004e3b88a000200000400000007000000f7ef000000003f800000000000000000","2185"
-355,326,27,-1,300.78,-145.93,-156.57,-134.69,-134.73,300.44,59.95, ,"0018000000200000000040000084000004e3b88a000200000400000007000000f7ef000000003f800000000000000000","2172"
-371,67,305,2,206.37,83.36,-291.05,102.14,102.10,207.11,59.95, ,"0018000000200000000040000084000004e3b88a000200000400000007000000f7ef000000003f800000000000000000","2068"
-169,-231,404,4,-8.94,263.84,-255.05,279.15,279.13,-7.54,59.95, ,"0018000000200000000040000084000004e3b88a000200000400000007000000f7ef000000003f800000000000000000","20BC"
131,-394,266,3,-219.02,289.73,-69.61,292.62,292.62,-217.77,59.95, ,"0018000000200000000040000084000004e3b88a000200000400000007000000f7ef000000003f800000000000000000","212B"
354,-326,-27,0,-300.76,145.90,156.58,134.66,134.68,-300.44,59.95, ,"0018000000200000000040000084000004e3b88a000200000400000007000000f7ef000000003f800000000000000000","2113"
370,-67,-304,-2,-206.35,-83.38,291.05,-102.18,-102.12,-207.12,59.95, ,"0018000000200000000040000084000004e3b88a000200000400000007000000f7ef000000003f800000000000000000","217B"
169,231,-403,-3,8.94,-263.79,255.04,-279.14,-279.10,7.54,59.95, ,"0018000000200000000040000084000004e3b88a000200000400000007000000f7ef000000003f800000000000000000","20B9"
-131,394,-267,-3,218.97,-289.66,69.59,-292.57,-292.56,217.77,59.95, ,"0018000000200000000040000084000004e3b88a000200000400000007000000f7ef000000003f800000000000000000","21A3"
-354,326,26,-1,300.74,-145.89,-156.58,-134.66,-134.69,300.44,59.95, ,"0018000000200000000040000084000004e3b88a000200000400000007000000f7ef000000003f800000000000000000","2174"
-369,68,303,2,206.37,83.32,-291.05,102.12,102.07,207.12,59.95, ,"0018000000200000000040000084000004e3b88a000200000400000007000000f7ef000000003f800000000000000000","206F"
-169,-230,404,4,-8.89,263.73,-255.02,279.10,279.06,-7.53,59.95, ,"0018000000200000000040000084000004e3b88a000200000400000007000000f7ef000000003f800000000000000000","20B6"
130,-394,267,3,-218.97,289.69,-69.62,292.63,292.61,-217.77,59.95, ,"0018000000200000000040000084000004e3b88a000200000400000007000000f7ef000000003f800000000000000000","213E"
353,-327,-26,0,-300.78,145.94,156.57,134.73,134.74,-300.44,59.95, ,"0018000000200000000040000084000004e3b88a000200000400000007000000f7ef000000003f800000000000000000","2112"
369,-68,-304,-4,-206.38,-83.32,291.05,-102.12,-102.07,-207.12,59.95, ,"0018000000200000000040000084000004e3b88a000200000400000007000000f7ef000000003f800000000000000000","2181"
169,230,-404,-4,8.90,-263.79,255.05,-279.16,-279.10,7.52,59.95, ,"0018000000200000000040000084000004e3b88a000200000400000007000000f7ef000000003f800000000000000000","20B7"
-130,394,-266,-2,218.98,-289.71,69.63,-292.65,-292.62,217.76,59.95, ,"0018000000200000000040000084000004e3b88a000200000400000007000000f7ef000000003f800000000000000000","2193"
-353,327,27,1,300.79,-145.89,-156.62,-134.68,-134.69,300.44,59.95, ,"0018000000200000000040000084000004e3b88a000200000400000007000000f7ef000000003f800000000000000000","214A"
-370,69,305,4,206.36,83.36,-291.05,102.15,102.09,207.13,59.95, ,"0018000000200000000040000084000004e3b88a000200000400000007000000f7ef000000003f800000000000000000","2075"
-170,-230,404,4,-8.97,263.80,-255.00,279.16,279.09,-7.52,59.95, ,"0018000000200000000040000084000004e3b88a000200000400000007000000f7ef000000003f800000000000000000","20B1"
130,-394,267,3,-219.01,289.67,-69.58,292.59,292.57,-217.76,59.95, ,"0018000000200000000040000084000004e3b88a000200000400000007000000f7ef000000003f800000000000000000","213C"
353,-327,-27,-1,-300.76,145.85,156.62,134.61,134.65,-300.44,59.95, ,"0018000000200000000040000084000004e3b88a000200000400000007000000f7ef000000003f800000000000000000","2138"
370,-69,-304,-3,-206.33,-83.36,291.03,-102.16,-102.10,-207.12,59.95, ,"0018000000200000000040000084000004e3b88a000200000400000007000000f7ef000000003f800000000000000000","2174"
170,230,-404,-5,8.96,-263.67,254.92,-279.05,-278.99,7.53,59.95, ,"0018000000200000000040000084000004e3b88a000200000400000007000000f7ef000000003f800000000000000000","20C7"
-130,394,-266,-3,219.01,-289.62,69.55,-292.56,-292.54,217.76,59.95, ,"0018000000200000000040000084000004e3b88a000200000400000007000000f7ef000000003f800000000000000000","2187"
-353,327,26,-0,300.75,-145.91,-156.55,-134.67,-134.71,300.43,59.95, ,"0018000000200000000040000084000004e3b88a000200000400000007000000f7ef000000003f800000000000000000","2163"
-370,68,304,2,206.32,83.30,-290.97,102.10,102.04,207.11,59.95, ,"0018000000200000000040000084000004e3b88a000200000400000007000000f7ef000000003f800000000000000000","2065"
-170,-230,403,3,-8.92,263.69,-254.94,279.04,279.00,-7.53,59.95, ,"0018000000200000000040000084000004e3b88a000200000400000007000000f7ef000000003f800000000000000000","20B2"
130,-394,266,2,-218.96,289.64,-69.59,292.59,292.57,-217.75,59.95, ,"0018000000200000000040000084000004e3b88a000200000400000007000000f7ef000000003f800000000000000000","2144"
353,-327,-26,-0,-300.74,145.92,156.52,134.74,134.75,-300.41,59.95, ,"0018000000200000000040000084000004e3b88a000200000400000007000000f7ef000000003f800000000000000000","2133"
370,-69,-303,-2,-206.36,-83.29,290.98,-102.06,-102.02,-207.10,59.95, ,"0018000000200000000040000084000004e3b88a000200000400000007000000f7ef000000003f800000000000000000","2182"
170,231,-403,-2,8.91,-263.75,255.01,-279.10,-279.06,7.52,59.95, ,"0018000000200000000040000084000004e3b88a000200000400000007000000f7ef000000003f800000000000000000","20A5"
-129,394,-267,-2,218.95,-289.67,69.62,-292.61,-292.59,217.74,59.95, ,"0018000000200000000040000084000004e3b88a000200000400000007000000f7ef000000003f800000000000000000","219D"
-353,327,26,-0,300.75,-145.92,-156.54,-134.73,-134.74,300.41,59.95, ,"0018000000200000000040000084000004e3b88a000200000400000007000000f7ef000000003f800000000000000000","2161"
-370,68,304,2,206.39,83.31,-291.02,102.09,102.05,207.11,59.95, ,"0018000000200000000040000084000004e3b88a000200000400000007000000f7ef000000003f800000000000000000","2069"
-170,-231,404,3,-8.89,263.73,-255.01,279.10,279.04,-7.51,59.95, ,"0018000000200000000040000084000004e3b88a000200000400000007000000f7ef000000003f800000000000000000","20A9"
130,-394,267,3,-218.95,289.65,-69.62,292.58,292.56,-217.73,59.95, ,"0018000000200000000040000084000004e3b88a000200000400000007000000f7ef000000003f800000000000000000","213C"
354,-327,-26,1,-300.74,145.94,156.52,134.71,134.74,-300.41,59.95, ,"0018000000200000000040000084000004e3b88a000200000400000007000000f7ef000000003f800000000000000000","2106"
370,-68,-304,-2,-206.38,-83.29,291.00,-102.07,-102.02,-207.11,59.95, ,"0018000000200000000040000084000004e3b88a000200000400000007000000f7ef000000003f800000000000000000","2176"
170,230,-404,-4,8.85,-263.71,255.02,-279.06,-279.00,7.50,59.95, ,"0018000000200000000040000084000004e3b88a000200000400000007000000f7ef000000003f800000000000000000","20A4"
-131,394,-267,-4,218.94,-289.68,69.64,-292.60,-292.59,217.73,59.95, ,"0018000000200000000040000084000004e3b88a000200000400000007000000f7ef000000003f800000000000000000","2198"
-354,327,26,-0,300.76,-145.94,-156.54,-134.73,-134.77,300.41,59.95, ,"0018000000200000000040000084000004e3b88a000200000400000007000000f7ef000000003f800000000000000000","2168"
-370,68,304,3,206.35,83.30,-290.98,102.08,102.02,207.12,59.95, ,"0018000000200000000040000084000004e3b88a000200000400000007000000f7ef000000003f800000000000000000","2070"
-170,-230,404,4,-8.90,263.74,-255.00,279.07,279.04,-7.50,59.95, ,"0018000000200000000040000084000004e3b88a000200000400000007000000f7ef000000003f800000000000000000","20A6"
130,-394,267,3,-218.96,289.68,-69.62,292.59,292.60,-217.72,59.95, ,"0018000000200000000040000084000004e3b88a000200000400000007000000f7ef000000003f800000000000000000","213B"
353,-327,-26,0,-300.74,145.91,156.53,134.71,134.74,-300.41,59.95, ,"0018000000200000000040000084000004e3b88a000200000400000007000000f7ef000000003f800000000000000000","2102"
370,-68,-304,-3,-206.31,-83.31,290.97,-102.10,-102.05,-207.12,59.95, ,"0018000000200000000040000084000004e3b88a000200000400000007000000f7ef000000003f800000000000000000","2176"
170,230,-404,-3,8.93,-263.72,254.97,-279.06,-279.04,7.50,59.95, ,"0018000000200000000040000084000004e3b88a000200000400000007000000f7ef000000003f800000000000000000","20B4"
-129,394,-266,-2,218.90,-289.62,69.64,-292.53,-292.54,217.72,59.95, ,"0018000000200000000040000084000004e3b88a000200000400000007000000f7ef000000003f800000000000000000","218E"
-353,327,26,-0,300.70,-145.93,-156.48,-134.71,-134.73,300.40,59.95, ,"0018000000200000000040000084000004e3b88a000200000400000007000000f7ef000000003f800000000000000000","215C"
-370,68,304,2,206.37,83.24,-290.96,102.03,102.00,207.12,59.95, ,"0018000000200000000040000084000004e3b88a000200000400000007000000f7ef000000003f800000000000000000","206B"
-170,-230,403,3,-8.81,263.64,-255.00,278.99,278.95,-7.49,59.95, ,"0018000000200000000040000084000004e3b88a000200000400000007000000f7ef000000003f800000000000000000","20BE"
129,-395,267,2,-218.84,289.64,-69.70,292.57,292.55,-217.70,59.95, ,"0018000000200000000040000084000004e3b88a000200000400000007000000f7ef000000003f800000000000000000","213B"
354,-327,-26,0,-300.75,146.04,156.44,134.81,134.84,-300.39,59.95, ,"0018000000200000000040000084000004e3b88a000200000400000007000000f7ef000000003f800000000000000000","2108"
371,-68,-304,-1,-206.51,-83.14,290.99,-101.96,-101.91,-207.13,59.95, ,"0018000000200000000040000084000004e3b88a000200000400000007000000f7ef000000003f800000000000000000","218C"
170,231,-404,-3,8.75,-263.65,255.07,-279.04,-278.99,7.46,59.95, ,"0018000000200000000040000084000004e3b88a000200000400000007000000f7ef000000003f800000000000000000","20BF"
-130,395,-268,-3,218.90,-289.73,69.74,-292.68,-292.65,217.68,59.95, ,"0018000000200000000040000084000004e3b88a000200000400000007000000f7ef000000003f800000000000000000","219A"
-355,327,26,-1,300.80,-146.08,-156.46,-134.85,-134.87,300.40,59.95, ,"0018000000200000000040000084000004e3b88a000200000400000007000000f7ef000000003f800000000000000000","2165"
-371,69,305,2,206.52,83.16,-291.02,101.97,101.91,207.15,59.95, ,"0018000000200000000040000084000004e3b88a000200000400000007000000f7ef000000003f800000000000000000","2078"
-170,-230,404,4,-8.78,263.70,-255.10,279.11,279.05,-7.43,59.95, ,"0018000000200000000040000084000004e3b88a000200000400000007000000f7ef000000003f800000000000000000","20A7"
131,-394,267,4,-218.93,289.77,-69.75,292.71,292.70,-217.67,59.95, ,"0018000000200000000040000084000004e3b88a000200000400000007000000f7ef000000003f800000000000000000","213D"
355,-327,-27,1,-300.78,146.03,156.48,134.81,134.83,-300.41,59.95, ,"0018000000200000000040000084000004e3b88a000200000400000007000000f7ef000000003f800000000000000000","2109"
370,-69,-305,-4,-206.46,-83.24,291.04,-102.04,-101.99,-207.18,59.95, ,"0018000000200000000040000084000004e3b88a000200000400000007000000f7ef000000003f800000000000000000","218B"
170,229,-403,-4,8.80,-263.73,255.10,-279.09,-279.04,7.42,59.95, ,"0018000000200000000040000084000004e3b88a000200000400000007000000f7ef000000003f800000000000000000","20AF"
-130,394,-266,-2,218.89,-289.73,69.76,-292.65,-292.64,217.67,59.95, ,"0018000000200000000040000084000004e3b88a000200000400000007000000f7ef000000003f800000000000000000","219B"
-354,327,27,1,300.74,-146.02,-156.44,-134.79,-134.81,300.42,59.95, ,"0018000000200000000040000084000004e3b88a000200000400000007000000f7ef000000003f800000000000000000","2132"
-371,69,304,2,206.46,83.23,-291.03,102.02,101.98,207.19,59.95, ,"0018000000200000000040000084000004e3b88a000200000400000007000000f7ef000000003f800000000000000000","2077"
-170,-230,403,3,-8.76,263.72,-255.15,279.07,279.03,-7.41,59.95, ,"0018000000200000000040000084000004e3b88a000200000400000007000000f7ef000000003f800000000000000000","20AB"
130,-394,266,2,-218.89,289.77,-69.80,292.68,292.67,-217.67,59.95, ,"0018000000200000000040000084000004e3b88a000200000400000007000000f7ef000000003f800000000000000000","2146"
354,-327,-26,0,-300.80,146.06,156.44,134.81,134.84,-300.43,59.95, ,"0018000000200000000040000084000004e3b88a000200000400000007000000f7ef000000003f800000000000000000","2101"
371,-68,-304,-1,-206.50,-83.22,291.05,-102.03,-101.99,-207.20,59.95, ,"0018000000200000000040000084000004e3b88a000200000400000007000000f7ef000000003f800000000000000000","2179"
171,230,-403,-3,8.74,-263.74,255.16,-279.10,-279.08,7.40,59.95, ,"0018000000200000000040000084000004e3b88a000200000400000007000000f7ef000000003f800000000000000000","20AB"
-129,393,-266,-2,218.82,-289.87,69.66,-292.76,-292.76,217.67,59.95, ,"0018000000200000000040000084000004e3b88a000200000400000007000000f7ef000000003f800000000000000000","21A4"
-157,338,-20,161,274.38,-149.71,-157.25,-138.38,-138.39,299.93,59.95, ,"001a000020200000000040000084000004e3b88a000200000400000007000000f7ef000000003f800000000000000000","221D"
