"FID","RID","SID","03E2"
"FID=SEL-421-R117-V0-Z007007-D20060413","UPD2X LINHA RIBEIRO GONCALVES","SE COLINAS","1437"
"MONTH","DAY","YEAR","HOUR","MIN","SEC","MSEC","0ACA"
3,28,2019,8,41,47,686,"0449"
"EVENT_NUM","EVENT","LOCATION","FREQ","NFREQ","SAM/CYC_A","SAM/CYC_D","NUM_OF_CYC","SER_NUM","PRIM_VAL","CTR_IA","CTR_IB","CTR_IC","CTR_IG","PTR_VA","PTR_VB","PTR_VC","PTR_VS1","PTR_VS2","CTRW","CTRX","PTRY","PTRZ","GROUP","BREAKER1","HOUR_T1","MIN_T1","SEC_T1","MSEC_T1","HOUR_C1","MIN_C1","SEC_C1","MSEC_C1","BREAKER2","HOUR_T2","MIN_T2","SEC_T2","MSEC_T2","HOUR_C2","MIN_C2","SEC_C2","MSEC_C2","T_LED","TARGETS","MB_TRIGGER","MB_TRIP","IA_PF","IA_DEG_PF","IB_PF","IB_DEG_PF","IC_PF","IC_DEG_PF","IG_PF","IG_DEG_PF","3I2_PF","3I2_DEG_PF","I1_PF","I1_DEG_PF","VA_PF","VA_DEG_PF","VB_PF","VB_DEG_PF","VC_PF","VC_DEG_PF","VS1_PF","VS1_DEG_PF","VS2_PF","VS2_DEG_PF","V1MEM_PF","V1MEM_DEG_PF","V0_PF","V0_DEG_PF","V2_PF","V2_DEG_PF","V1_PF","V1_DEG_PF","IA","IA_DEG","IB","IB_DEG","IC","IC_DEG","IG","IG_DEG","3I2","3I2_DEG","I1","I1_DEG","VA","VA_DEG","VB","VB_DEG","VC","VC_DEG","VS1","VS1_DEG","VS2","VS2_DEG","V1MEM","V1MEM_DEG","V0","V0_DEG","V2","V2_DEG","V1","V1_DEG","EFCC"
13354,"CAG T",67.88,59.95,60,8,8,90.000,"2005290168","YES",1.0,1.0,1.0,1.0,1.0,1.0,1.0,1.0,1.0,2200,2200,4500,4500,1,"OPEN",8,41,47,696, , , , ,"OPEN",8,41,47,696, , , , ,47140,"COMM ZONE_2 A_PHASE C_PHASE GROUND 50","4003000010","421F000010",353,7.93,360,-112.81,353,126.21,1066,21.33,15,128.47,355,7.11,309,0.00,310,-119.76,309,119.94,310,-119.72,310,-119.80,309,0.06,1,-40.32,1,179.47,309,0.06,7838,-104.72,273,-131.80,8722,50.86,16833,-185.67,12218,-150.96,5282,-85.00,167,-4.22,349,-121.55,181,120.38,349,-121.63,349,-121.72,269,1.17,62,-124.94,51,122.93,232,-1.69,"7041"
"IA(A)","IB(A)","IC(A)","IG(A)","VA(kV)","VB(kV)","VC(kV)","VS1(kV)","VS2(kV)","V1MEM(kV)","FREQ","TRIG","LOPHC SPOA SPOB SPOC SPO 3PO 27APO 27BPO SOTFE ILOP LOP ZLOAD ZLIN ZLOUT FIDEN FSA FSB FSC DFAULT ER EAFSRC * * * M1P M2P M3P M4P M5P * * * 50Q1 50Q2 50Q3 50Q4 67Q1 67Q2 67Q3 67Q4 51S1 51S1T 51S1R * 51S2 51S2T 51S2R * 51S3 51S3T 51S3R * * * * * Z1G Z2G Z3G Z4G Z5G * * * 67G1 67G2 67G3 67G4 67G1T 67G2T 67G3T 67G4T RMB8A RMB7A RMB6A RMB5A RMB4A RMB3A RMB2A RMB1A TMB8A TMB7A TMB6A TMB5A TMB4A TMB3A TMB2A TMB1A RMB8B RMB7B RMB6B RMB5B RMB4B RMB3B RMB2B RMB1B TMB8B TMB7B TMB6B TMB5B TMB4B TMB3B TMB2B TMB1B ROKA RBADA CBADA LBOKA ANOKA DOKA * * ROKB RBADB CBADB LBOKB ANOKB DOKB * * TPA TPB TPC TRIP 3PT SPT TPA1 TPB1 TPC1 TPA2 TPB2 TPC2 TOP ULTR ULMTR1 ULMTR2 52ACL1 52BCL1 52CCL1 52AAL1 52BAL1 52CAL1 52AA1 52AB1 52AC1 * 52ACL2 52BCL2 52CCL2 52AAL2 52BAL2 52CAL2 BK2LO BK1CL BK2CL LEADBK0 LEADBK1 LEADBK2 FOLBK0 FOLBK1 TLED_1 TLED_2 TLED_3 TLED_4 TLED_5 TLED_6 TLED_7 TLED_8 TLED_9 TLED_10 TLED_11 TLED_12 TLED_13 TLED_14 TLED_15 TLED_16 M1PT M2PT M3PT M4PT M5PT * * * Z1GT Z2GT Z3GT Z4GT Z5GT * * * XAG5 XBG5 XCG5 CVTBLH CVTBL VPOLV * * OSB2 OSB3 OSB4 OSB5 OSB OSTI OSTO OST F32P R32P F32Q R32Q 32QF 32QR 32SPOF 32SPOR F32I R32I F32V R32V F32QG R32QG 32GF 32GR RXPRM COMPRM TRPRM DTR SOTFT E3PT E3PT1 E3PT2 50P1 50P2 50P3 50P4 67P1 67P2 67P3 67P4 67Q1T 67Q2T 67Q3T 67Q4T * * * * PT Z3RB KEY EKEY ECTT 27AWI 27BWI 27CWI 59VP 59VS1 25ENBK1 SFZBK1 SFBK1 25W1BK1 25W2BK1 25A1BK1 59VS2 25ENBK2 SFZBK2 SFBK2 25W1BK2 25W2BK2 25A1BK2 25A2BK2 FOC1 FOBF1 BFTRIP1 BFTR1 BFULTR1 * * * RTSA1 RTSB1 RTSC1 RT1 FBFA1 FBFB1 FBFC1 FBF1 FOC2 FOBF2 BFTRIP2 BFTR2 BFULTR2 * * * RTSA2 RTSB2 RTSC2 RT2 FBFA2 FBFB2 FBFC2 FBF2 * IN107 IN106 IN105 IN104 IN103 IN102 IN101 OUT108 OUT107 OUT106 OUT105 OUT104 OUT103 OUT102 OUT101 PSV08 PSV07 PSV06 PSV05 PSV04 PSV03 PSV02 PSV01 ASV008 ASV007 ASV006 ASV005 ASV004 ASV003 ASV002 ASV001 MAB5 MBC5 MCA5 * MAG1 MBG1 MCG1 * MAG2 MBG2 MCG2 * MAG3 MBG3 MCG3 * MAG4 MBG4 MCG4 * MAG5 MBG5 MCG5 * XAG1 XBG1 XCG1 * XAG2 XBG2 XCG2 * XAG3 XBG3 XCG3 * XAG4 XBG4 XCG4 * X6ABC X7ABC 50ABC UBOSB OSBA OSBB OSBC OSB1","F58D"
-255,347,-95,-3,-191.27,306.41,-115.07,307.00,306.82,-191.64,59.95, ,"0014000000200000004000000084000004e3b88a000200000400000007000000f7ef000000003f800000000000000000","2165"
-354,178,174,-2,-307.03,184.50,121.51,184.70,184.92,-307.25,59.95, ,"0014000000200000004000000084000004e3b88a000200000400000007000000f7ef000000003f800000000000000000","213E"
-246,-95,341,-0,-242.95,-45.51,286.91,-45.78,-45.32,-242.88,59.95, ,"0014000000200000004000000084000004e3b88a000200000400000007000000f7ef000000003f800000000000000000","2141"
7,-313,308,2,-36.56,-248.88,284.28,-249.48,-249.03,-36.24,59.95, ,"0014000000200000004000000084000004e3b88a000200000400000007000000f7ef000000003f800000000000000000","20E9"
255,-347,95,3,191.24,-306.45,115.12,-307.04,-306.86,191.63,59.95, ,"0014000000200000004000000084000004e3b88a000200000400000007000000f7ef000000003f800000000000000000","210F"
354,-178,-174,2,307.05,-184.52,-121.49,-184.75,-184.94,307.25,59.95, ,"0014000000200000004000000084000004e3b88a000200000400000007000000f7ef000000003f800000000000000000","21AA"
245,96,-341,-0,243.00,45.51,-286.94,45.77,45.32,242.89,59.95, ,"0014000000200000004000000084000004e3b88a000200000400000007000000f7ef000000003f800000000000000000","2056"
-7,313,-307,-2,36.60,248.89,-284.32,249.51,249.04,36.25,59.95, ,"0014000000200000004000000084000004e3b88a000200000400000007000000f7ef000000003f800000000000000000","2081"
-255,347,-94,-2,-191.26,306.45,-115.11,307.06,306.87,-191.63,59.95, ,"0014000000200000004000000084000004e3b88a000200000400000007000000f7ef000000003f800000000000000000","216B"
-353,178,174,-2,-307.09,184.50,121.53,184.76,184.94,-307.25,59.95, ,"0014000000200000004000000084000004e3b88a000200000400000007000000f7ef000000003f800000000000000000","214D"
-245,-96,340,-0,-243.00,-45.54,286.97,-45.81,-45.35,-242.90,59.95, ,"0014000000200000004000000084000004e3b88a000200000400000007000000f7ef000000003f800000000000000000","2132"
7,-312,308,2,-36.56,-248.89,284.30,-249.52,-249.05,-36.26,59.95, ,"0014000000200000004000000084000004e3b88a000200000400000007000000f7ef000000003f800000000000000000","20E1"
255,-347,95,3,191.28,-306.42,115.08,-307.05,-306.85,191.63,59.95, ,"0014000000200000004000000084000004e3b88a000200000400000007000000f7ef000000003f800000000000000000","2115"
354,-178,-173,2,307.07,-184.43,-121.56,-184.68,-184.89,307.26,59.95, ,"0014000000200000004000000084000004e3b88a000200000400000007000000f7ef000000003f800000000000000000","21B0"
245,95,-340,-0,242.97,45.57,-286.96,45.84,45.35,242.90,59.95, ,"0014000000200000004000000084000004e3b88a000200000400000007000000f7ef000000003f800000000000000000","2064"
-7,312,-308,-3,36.55,248.85,-284.27,249.47,249.01,36.25,59.95, ,"0014000000200000004000000084000004e3b88a000200000400000007000000f7ef000000003f800000000000000000","2088"
-255,347,-95,-3,-191.24,306.36,-115.08,306.98,306.81,-191.63,59.95, ,"0014000000200000004000000084000004e3b88a000200000400000007000000f7ef000000003f800000000000000000","2175"
-354,178,173,-2,-307.04,184.45,121.51,184.69,184.90,-307.26,59.95, ,"0014000000200000004000000084000004e3b88a000200000400000007000000f7ef000000003f800000000000000000","2149"
-245,-95,340,1,-242.99,-45.52,286.94,-45.79,-45.31,-242.90,59.95, ,"0014000000200000004000000084000004e3b88a000200000400000007000000f7ef000000003f800000000000000000","2114"
7,-312,308,3,-36.58,-248.83,284.28,-249.46,-249.00,-36.25,59.95, ,"0014000000200000004000000084000004e3b88a000200000400000007000000f7ef000000003f800000000000000000","20E2"
255,-347,95,2,191.26,-306.40,115.10,-307.01,-306.83,191.62,59.95, ,"0014000000200000004000000084000004e3b88a000200000400000007000000f7ef000000003f800000000000000000","2102"
353,-179,-174,0,307.04,-184.49,-121.49,-184.74,-184.94,307.25,59.95, ,"0014000000200000004000000084000004e3b88a000200000400000007000000f7ef000000003f800000000000000000","21AC"
244,95,-340,-0,242.98,45.51,-286.94,45.79,45.31,242.90,59.95, ,"0014000000200000004000000084000004e3b88a000200000400000007000000f7ef000000003f800000000000000000","205C"
-7,313,-307,-1,36.56,248.87,-284.30,249.51,249.04,36.26,59.95, ,"0014000000200000004000000084000004e3b88a000200000400000007000000f7ef000000003f800000000000000000","2082"
-255,347,-94,-2,-191.25,306.44,-115.11,307.05,306.86,-191.62,59.95, ,"0014000000200000004000000084000004e3b88a000200000400000007000000f7ef000000003f800000000000000000","2166"
-353,179,173,-1,-307.02,184.49,121.49,184.72,184.93,-307.25,59.95, ,"0014000000200000004000000084000004e3b88a000200000400000007000000f7ef000000003f800000000000000000","214D"
-245,-95,340,0,-242.96,-45.54,286.94,-45.82,-45.33,-242.90,59.95, ,"0014000000200000004000000084000004e3b88a000200000400000007000000f7ef000000003f800000000000000000","210E"
7,-314,308,1,-36.61,-248.85,284.28,-249.49,-249.01,-36.27,59.95, ,"0014000000200000004000000084000004e3b88a000200000400000007000000f7ef000000003f800000000000000000","20E4"
255,-347,95,3,191.21,-306.42,115.11,-307.04,-306.85,191.61,59.95, ,"0014000000200000004000000084000004e3b88a000200000400000007000000f7ef000000003f800000000000000000","2105"
353,-178,-173,2,307.03,-184.49,-121.48,-184.73,-184.95,307.25,59.95, ,"0014000000200000004000000084000004e3b88a000200000400000007000000f7ef000000003f800000000000000000","21AA"
245,95,-340,-1,243.02,45.48,-286.92,45.77,45.27,242.91,59.95, ,"0014000000200000004000000084000004e3b88a000200000400000007000000f7ef000000003f800000000000000000","2058"
-7,313,-308,-2,36.66,248.83,-284.32,249.47,248.97,36.27,59.95, ,"0014000000200000004000000084000004e3b88a000200000400000007000000f7ef000000003f800000000000000000","2094"
-255,347,-95,-3,-191.23,306.44,-115.15,307.07,306.87,-191.61,59.95, ,"0014000000200000004000000084000004e3b88a000200000400000007000000f7ef000000003f800000000000000000","216C"
-354,179,173,-2,-307.09,184.54,121.50,184.77,184.99,-307.25,59.95, ,"0014000000200000004000000084000004e3b88a000200000400000007000000f7ef000000003f800000000000000000","2155"
-246,-95,340,-0,-243.05,-45.47,286.96,-45.76,-45.26,-242.92,59.95, ,"0014000000200000004000000084000004e3b88a000200000400000007000000f7ef000000003f800000000000000000","213E"
6,-312,308,2,-36.61,-248.87,284.35,-249.52,-249.01,-36.29,59.95, ,"0014000000200000004000000084000004e3b88a000200000400000007000000f7ef000000003f800000000000000000","20DE"
255,-348,95,3,191.25,-306.46,115.15,-307.07,-306.87,191.60,59.95, ,"0014000000200000004000000084000004e3b88a000200000400000007000000f7ef000000003f800000000000000000","2116"
354,-179,-173,3,307.08,-184.51,-121.52,-184.74,-184.96,307.26,59.95, ,"0014000000200000004000000084000004e3b88a000200000400000007000000f7ef000000003f800000000000000000","21A9"
246,95,-340,1,243.02,45.51,-286.99,45.79,45.30,242.93,59.95, ,"0014000000200000004000000084000004e3b88a000200000400000007000000f7ef000000003f800000000000000000","202B"
-7,313,-308,-2,36.57,248.87,-284.31,249.50,249.03,36.29,59.95, ,"0014000000200000004000000084000004e3b88a000200000400000007000000f7ef000000003f800000000000000000","2087"
-255,348,-96,-4,-191.26,306.43,-115.10,307.03,306.85,-191.61,59.95, ,"0014000000200000004000000084000004e3b88a000200000400000007000000f7ef000000003f800000000000000000","2166"
-354,178,173,-3,-307.05,184.48,121.53,184.71,184.91,-307.26,59.95, ,"0014000000200000004000000084000004e3b88a000200000400000007000000f7ef000000003f800000000000000000","214A"
-245,-95,340,-0,-242.98,-45.52,286.94,-45.79,-45.32,-242.93,59.95, ,"0014000000200000004000000084000004e3b88a000200000400000007000000f7ef000000003f800000000000000000","2143"
7,-314,308,2,-36.60,-248.81,284.24,-249.42,-248.97,-36.29,59.95, ,"0014000000200000004000000084000004e3b88a000200000400000007000000f7ef000000003f800000000000000000","20E5"
255,-348,96,2,191.22,-306.40,115.08,-307.00,-306.81,191.61,59.95, ,"0014000000200000004000000084000004e3b88a000200000400000007000000f7ef000000003f800000000000000000","2103"
353,-179,-173,1,307.03,-184.51,-121.48,-184.74,-184.94,307.26,59.95, ,"0014000000200000004000000084000004e3b88a000200000400000007000000f7ef000000003f800000000000000000","21A4"
245,95,-340,0,242.99,45.47,-286.89,45.73,45.27,242.92,59.95, ,"0014000000200000004000000084000004e3b88a000200000400000007000000f7ef000000003f800000000000000000","203B"
-7,313,-307,-1,36.64,248.79,-284.26,249.41,248.95,36.29,59.95, ,"0014000000200000004000000084000004e3b88a000200000400000007000000f7ef000000003f800000000000000000","2092"
-254,348,-95,-1,-191.21,306.39,-115.11,307.01,306.81,-191.60,59.95, ,"0014000000200000004000000084000004e3b88a000200000400000007000000f7ef000000003f800000000000000000","215B"
-353,178,173,-3,-307.05,184.53,121.44,184.78,184.97,-307.25,59.95, ,"0014000000200000004000000084000004e3b88a000200000400000007000000f7ef000000003f800000000000000000","2151"
-245,-95,340,-1,-243.03,-45.45,286.90,-45.72,-45.24,-242.92,59.95, ,"0014000000200000004000000084000004e3b88a000200000400000007000000f7ef000000003f800000000000000000","212E"
7,-312,308,2,-36.63,-248.84,284.32,-249.47,-248.99,-36.30,59.95, ,"0014000000200000004000000084000004e3b88a000200000400000007000000f7ef000000003f800000000000000000","20E7"
255,-347,95,3,191.23,-306.42,115.15,-307.05,-306.85,191.59,59.95, ,"0014000000200000004000000084000004e3b88a000200000400000007000000f7ef000000003f800000000000000000","2113"
354,-179,-173,2,307.09,-184.52,-121.48,-184.78,-184.98,307.25,59.95, ,"0014000000200000004000000084000004e3b88a000200000400000007000000f7ef000000003f800000000000000000","21B4"
245,94,-340,-1,243.03,45.48,-286.94,45.76,45.27,242.93,59.95, ,"0014000000200000004000000084000004e3b88a000200000400000007000000f7ef000000003f800000000000000000","205B"
-7,312,-308,-4,36.61,248.83,-284.29,249.46,248.99,36.30,59.95, ,"0014000000200000004000000084000004e3b88a000200000400000007000000f7ef000000003f800000000000000000","2091"
-255,347,-95,-3,-191.21,306.41,-115.14,307.01,306.83,-191.59,59.95, ,"0014000000200000004000000084000004e3b88a000200000400000007000000f7ef000000003f800000000000000000","2163"
-353,179,174,0,-307.05,184.52,121.46,184.75,184.97,-307.25,59.95, ,"0014000000200000004000000084000004e3b88a000200000400000007000000f7ef000000003f800000000000000000","2121"
-245,-94,341,2,-243.03,-45.44,286.92,-45.73,-45.24,-242.93,59.95, ,"0014000000200000004000000084000004e3b88a000200000400000007000000f7ef000000003f800000000000000000","2105"
7,-312,307,2,-36.67,-248.80,284.32,-249.43,-248.97,-36.31,59.95, ,"0014000000200000004000000084000004e3b88a000200000400000007000000f7ef000000003f800000000000000000","20E1"
255,-348,95,2,191.20,-306.43,115.15,-307.03,-306.87,191.58,59.95, ,"0014000000200000004000000084000004e3b88a000200000400000007000000f7ef000000003f800000000000000000","2110"
353,-179,-173,1,307.05,-184.55,-121.46,-184.76,-184.98,307.25,59.95, ,"0014000000200000004000000084000004e3b88a000200000400000007000000f7ef000000003f800000000000000000","21AD"
245,95,-340,-0,243.02,45.47,-286.93,45.76,45.27,242.94,59.95, ,"0014000000200000004000000084000004e3b88a000200000400000007000000f7ef000000003f800000000000000000","2059"
-7,313,-307,-1,36.65,248.84,-284.33,249.47,249.00,36.32,59.95, ,"0014000000200000004000000084000004e3b88a000200000400000007000000f7ef000000003f800000000000000000","2080"
-255,348,-96,-3,-191.20,306.43,-115.14,307.03,306.85,-191.58,59.95, ,"0014000000200000004000000084000004e3b88a000200000400000007000000f7ef000000003f800000000000000000","2169"
-353,179,172,-2,-307.04,184.50,121.50,184.73,184.94,-307.25,59.95, ,"0014000000200000004000000084000004e3b88a000200000400000007000000f7ef000000003f800000000000000000","2141"
-245,-95,339,-1,-242.99,-45.48,286.92,-45.77,-45.28,-242.94,59.95, ,"0014000000200000004000000084000004e3b88a000200000400000007000000f7ef000000003f800000000000000000","2154"
6,-313,308,2,-36.61,-248.81,284.28,-249.44,-248.97,-36.32,59.95, ,"0014000000200000004000000084000004e3b88a000200000400000007000000f7ef000000003f800000000000000000","20E4"
254,-347,96,3,191.17,-306.39,115.15,-306.99,-306.81,191.58,59.95, ,"0014000000200000004000000084000004e3b88a000200000400000007000000f7ef000000003f800000000000000000","2123"
354,-178,-173,3,307.00,-184.51,-121.45,-184.73,-184.94,307.25,59.95, ,"0014000000200000004000000084000004e3b88a000200000400000007000000f7ef000000003f800000000000000000","219E"
246,95,-340,0,243.02,45.42,-286.90,45.71,45.22,242.94,59.95, ,"0014000000200000004000000084000004e3b88a000200000400000007000000f7ef000000003f800000000000000000","201B"
-7,312,-309,-3,36.69,248.74,-284.29,249.37,248.91,36.32,59.95, ,"0014000000200000004000000084000004e3b88a000200000400000007000000f7ef000000003f800000000000000000","2093"
-255,347,-96,-4,-191.14,306.41,-115.20,307.01,306.85,-191.57,59.95, ,"0014000000200000004000000084000004e3b88a000200000400000007000000f7ef000000003f800000000000000000","2164"
-354,179,173,-2,-307.05,184.60,121.39,184.83,185.05,-307.24,59.95, ,"0014000000200000004000000084000004e3b88a000200000400000007000000f7ef000000003f800000000000000000","2145"
-246,-94,341,0,-243.12,-45.36,286.92,-45.64,-45.17,-242.94,59.95, ,"0014000000200000004000000084000004e3b88a000200000400000007000000f7ef000000003f800000000000000000","2108"
7,-313,308,2,-36.75,-248.78,284.36,-249.40,-248.95,-36.34,59.95, ,"0014000000200000004000000084000004e3b88a000200000400000007000000f7ef000000003f800000000000000000","20EB"
255,-347,96,3,191.20,-306.46,115.20,-307.08,-306.91,191.55,59.95, ,"0014000000200000004000000084000004e3b88a000200000400000007000000f7ef000000003f800000000000000000","210D"
354,-179,-173,2,307.12,-184.64,-121.41,-184.88,-185.10,307.25,59.95, ,"0014000000200000004000000084000004e3b88a000200000400000007000000f7ef000000003f800000000000000000","219C"
246,95,-340,0,243.14,45.36,-286.93,45.64,45.16,242.96,59.95, ,"0014000000200000004000000084000004e3b88a000200000400000007000000f7ef000000003f800000000000000000","202B"
-6,313,-308,-1,36.70,248.82,-284.36,249.45,248.99,36.36,59.95, ,"0014000000200000004000000084000004e3b88a000200000400000007000000f7ef000000003f800000000000000000","2090"
-254,347,-95,-2,-191.25,306.50,-115.18,307.12,306.93,-191.55,59.95, ,"0014000000200000004000000084000004e3b88a000200000400000007000000f7ef000000003f800000000000000000","2168"
-353,179,173,-1,-307.12,184.60,121.46,184.85,185.06,-307.26,59.95, ,"0014000000200000004000000084000004e3b88a000200000400000007000000f7ef000000003f800000000000000000","2144"
-246,-95,340,-0,-243.05,-45.43,286.91,-45.69,-45.21,-242.98,59.95, ,"0014000000200000004000000084000004e3b88a000200000400000007000000f7ef000000003f800000000000000000","2138"
6,-313,308,1,-36.65,-248.82,284.32,-249.46,-248.99,-36.36,59.95, ,"0014000000200000004000000084000004e3b88a000200000400000007000000f7ef000000003f800000000000000000","20EB"
254,-348,95,1,191.18,-306.46,115.22,-307.09,-306.91,191.55,59.95, ,"0014000000200000004000000084000004e3b88a000200000400000007000000f7ef000000003f800000000000000000","2114"
353,-178,-173,2,307.04,-184.58,-121.41,-184.84,-185.04,307.26,59.95, ,"0014000000200000004000000084000004e3b88a000200000400000007000000f7ef000000003f800000000000000000","219E"
246,95,-340,1,243.06,45.43,-286.92,45.69,45.21,242.98,59.95, ,"0014000000200000004000000084000004e3b88a000200000400000007000000f7ef000000003f800000000000000000","202D"
-5,313,-308,-0,36.73,248.82,-284.38,249.45,248.98,36.37,59.95, ,"0014000000200000004000000084000004e3b88a000200000400000007000000f7ef000000003f800000000000000000","2093"
-254,348,-95,-2,-191.15,306.48,-115.26,307.11,306.92,-191.55,59.95, ,"0014000000200000004000000084000004e3b88a000200000400000007000000f7ef000000003f800000000000000000","216C"
-354,178,173,-2,-307.07,184.62,121.39,184.86,185.07,-307.26,59.95, ,"0014000000200000004000000084000004e3b88a000200000400000007000000f7ef000000003f800000000000000000","214F"
-246,-95,340,-1,-243.12,-45.41,286.96,-45.69,-45.22,-242.99,59.95, ,"0014000000200000004000000084000004e3b88a000200000400000007000000f7ef000000003f800000000000000000","213C"
6,-313,308,1,-36.74,-248.86,284.41,-249.49,-249.03,-36.38,59.95, ,"0014000000200000004000000084000004e3b88a000200000400000007000000f7ef000000003f800000000000000000","20E6"
260,-349,99,10,190.97,-306.62,115.03,-307.19,-307.00,191.55,59.95, ,"0014000000200000004000000084000004e3b88a000200000400000007000000f7ef000000003f800000000000000000","2141"
